,bhk,status,Size(Sq/ft),Price/Sqft,price,bath,area
0,3.0,Under Construction,1755 ,3950,6932000.0,3 ,Noida Extensions
1,,Resale,900 ,1666,1500000.0,,Sector 122
2,3.0,Under Construction,978 ,30603,29900000.0,,Sector 146
3,3.0,Under Construction,978 ,32753,32000000.0,,Sector 146
4,3.0,Ready to move,2350 ,11489,27000000.0,3 ,Sector 50
5,1.0,Ready to move,625 ,4320,2700000.0,,Sector 49
6,2.0,Ready to move,1110 ,10810,12000000.0,2 ,Sector 93
7,7.0,Ready to move,8500 ,13529,115000000.0,7 ,Sector 150
8,3.0,Ready to move,1505 ,6445,9700000.0,2 ,Sector 74
9,3.0,Ready to move,2300 ,15652,36000000.0,4 ,Sector 150
10,3.0,Ready to move,1385 ,9805,13500000.0,2 ,Sector 77
11,1.0,Ready to move,834 ,28355,23600000.0,,Sector 94
12,3.0,Ready to move,1800 ,13777,24800000.0,3 ,Sector 62
13,3.0,Ready to move,2003 ,10983,22000000.0,3 ,Sector 128
14,3.0,Ready to move,1750 ,13999,24400000.0,,Sector 150
15,2.0,Ready to move,1250 ,6240,7800000.0,2 ,Sector 168
16,3.0,Under Construction,1675 ,12253,20500000.0,,Sector 150
17,3.0,Ready to move,1545 ,10679,16500000.0,3 ,Sector 77
18,3.0,Under Construction,1700 ,6470,11000000.0,3 ,Sector 143B
19,1.0,Ready to move,600 ,3958,2375000.0,1 ,Sector 73
20,3.0,Under Construction,1755 ,3950,6932000.0,3 ,Noida Extensions
21,,Resale,900 ,1666,1500000.0,,Sector 122
22,3.0,Under Construction,978 ,30603,29900000.0,,Sector 146
23,3.0,Under Construction,978 ,32753,32000000.0,,Sector 146
24,3.0,Ready to move,2350 ,11489,27000000.0,3 ,Sector 50
25,1.0,Ready to move,625 ,4320,2700000.0,,Sector 49
26,2.0,Ready to move,1110 ,10810,12000000.0,2 ,Sector 93
27,7.0,Ready to move,8500 ,13529,115000000.0,7 ,Sector 150
28,3.0,Ready to move,1505 ,6445,9700000.0,2 ,Sector 74
29,3.0,Ready to move,2300 ,15652,36000000.0,4 ,Sector 150
30,3.0,Ready to move,1385 ,9805,13500000.0,2 ,Sector 77
31,1.0,Ready to move,834 ,28355,23600000.0,,Sector 94
32,3.0,Ready to move,1800 ,13777,24800000.0,3 ,Sector 62
33,3.0,Ready to move,2003 ,10983,22000000.0,3 ,Sector 128
34,3.0,Ready to move,1750 ,13999,24400000.0,,Sector 150
35,2.0,Ready to move,1250 ,6240,7800000.0,2 ,Sector 168
36,3.0,Under Construction,1675 ,12253,20500000.0,,Sector 150
37,3.0,Ready to move,1545 ,10679,16500000.0,3 ,Sector 77
38,3.0,Under Construction,1700 ,6470,11000000.0,3 ,Sector 143B
39,1.0,Ready to move,600 ,3958,2375000.0,1 ,Sector 73
40,2.0,Ready to move,1131 ,7957,9000000.0,2 ,Sector 137
41,3.0,Under Construction,2555 ,13000,33200000.0,3 ,Sector 150
42,1.0,Ready to move,600 ,4000,2400000.0,1 ,Surajpur Site 4
43,2.0,Ready to move,1025 ,11317,11600000.0,2 ,Sector 144
44,4.0,Ready to move,1430 ,6013,8600000.0,4 ,Sector 151
45,2.0,Under Construction,1700 ,3049,5184000.0,2 ,Sector 16B
46,2.0,Ready to move,1750 ,7428,13000000.0,2 ,Sector 27
47,3.0,Ready to move,1350 ,3185,4300000.0,3 ,Sector 73
48,4.0,Ready to move,2091 ,18412,38500000.0,4 ,Sector 75
49,4.0,Under Construction,2990 ,10969,32800000.0,4 ,Sector 150
50,3.0,Under Construction,1380 ,8261,11400000.0,2 ,Noida Extensions
51,3.0,Under Construction,1380 ,8261,11400000.0,2 ,Noida Extensions
52,3.0,Under Construction,1380 ,8261,11400000.0,2 ,Noida Extensions
53,3.0,Under Construction,1380 ,8261,11400000.0,2 ,Noida Extensions
54,2.0,Ready to move,1050 ,3095,3250000.0,2 ,Noida Extensions
55,3.0,Ready to move,977 ,32958,32200000.0,3 ,Sector 146
56,3.0,Under Construction,1500 ,7000,10500000.0,,Sector 25 Yamuna Express Way
57,1.0,Ready to move,650 ,3692,2399000.0,2 ,Sector 32
58,3.0,Ready to move,2510 ,14342,36000000.0,3 ,Sector 75
59,4.0,Ready to move,5500 ,4945,27200000.0,4 ,Sector 31
60,3.0,Under Construction,1380 ,8261,11400000.0,2 ,Noida Extensions
61,3.0,Ready to move,1265 ,6482,8200000.0,2 ,Sector 137
62,4.0,Ready to move,2910 ,7216,21000000.0,4 ,Phase 2 Noida Extension
63,3.0,Ready to move,1555 ,10610,16500000.0,2 ,Sector 77
64,4.0,Ready to move,2600 ,5500,14300000.0,,Sector 16B
65,3.0,Ready to move,1950 ,3025,5900000.0,3 ,Sector 49
66,3.0,Under Construction,978 ,30603,29900000.0,,Sector 146
67,2.0,Under Construction,870 ,3448,3000000.0,2 ,Girdharpur Sunarasi
68,2.0,Under Construction,831 ,30084,25000000.0,,Sector 146
69,3.0,Under Construction,1380 ,8262,11400000.0,2 ,Noida Extensions
70,3.0,Ready to move,2460 ,13999,34400000.0,,Sector 150
71,4.0,Under Construction,1821 ,24032,43700000.0,4 ,Sector 150
72,4.0,Ready to move,4500 ,18888,85000000.0,4 ,Sector 104
73,2.0,Ready to move,1290 ,8527,11000000.0,2 ,Sector 77
74,3.0,Ready to move,2200 ,11363,25000000.0,3 ,rho 2
75,,New,2160 ,8888,19200000.0,,Yeida
76,,New,9000 ,555,4999000.0,,Sector 150
77,,New,27216 ,1103,30000000.0,,Sector 135
78,3.0,Ready to move,1410 ,5200,7332000.0,3 ,Sector 77
79,3.0,Under Construction,1580 ,6930,10900000.0,3 ,Phase 2 Noida Extension
80,1.0,Ready to move,2152 ,10223,22000000.0,2 ,rho 2
81,4.0,Ready to move,3501 ,17566,61500000.0,4 ,Sector 107
82,2.0,Ready to move,1220 ,11878,14400000.0,1 ,Sector 94
83,3.0,Ready to move,1861 ,16442,30600000.0,4 ,Sector 150
84,3.0,Under Construction,1580 ,8000,12600000.0,,Phase 2 Noida Extension
85,3.0,Ready to move,1775 ,3699,6565000.0,3 ,Phase 2 Noida Extension
86,3.0,Under Construction,1580 ,8000,12600000.0,,Phase 2 Noida Extension
87,3.0,Under Construction,3270 ,19114,62500000.0,3 ,Sector 94
88,2.0,Ready to move,1183 ,8875,10500000.0,2 ,Sector 100
89,3.0,Under Construction,1380 ,8262,11400000.0,2 ,Noida Extensions
90,,New,900 ,2666,2400000.0,,Sector 148
91,2.0,Under Construction,1050 ,3095,3250000.0,2 ,Noida Extensions
92,2.0,Ready to move,750 ,2533,1900000.0,2 ,Sector 86
93,3.0,Ready to move,1450 ,3517,5100000.0,3 ,Noida Extensions
94,5.0,Ready to move,4000 ,9125,36500000.0,5 ,Sector 41
95,4.0,Ready to move,3000 ,7033,21100000.0,4 ,Phase 2 Noida Extension
96,3.0,Ready to move,900 ,3333,2999000.0,,Sector 102
97,2.0,Ready to move,1035 ,3577,3702000.0,2 ,Sector 74
98,3.0,Ready to move,1545 ,8414,13000000.0,3 ,Sector 76
99,3.0,Ready to move,2280 ,12500,28500000.0,4 ,Sector 79
100,3.0,Ready to move,1971 ,11922,23500000.0,3 ,Sector 77
101,,Ready to move,550 ,10727,5900000.0,1 ,Sector 16B
102,3.0,Under Construction,2150 ,12500,26800000.0,4 ,Sector 150
103,4.0,Ready to move,3501 ,18500,64700000.0,3 ,Sector 107
104,3.0,Under Construction,1800 ,9000,16200000.0,,Noida Extensions
105,3.0,Under Construction,1616 ,13587,21900000.0,4 ,Sector 43
106,2.0,Under Construction,985 ,2842,2800000.0,,Noida Extensions
107,5.0,Under Construction,3750 ,17600,66000000.0,6 ,Sector 43
108,4.0,Ready to move,3000 ,7003,21000000.0,4 ,Phase 2 Noida Extension
109,3.0,Ready to move,1285 ,9182,11800000.0,3 ,Sector 150
110,3.0,Ready to move,1700 ,2529,4300000.0,2 ,Noida Extensions
111,2.0,Under Construction,1155 ,7445,8600000.0,2 ,Sector 150
112,2.0,Ready to move,1155 ,8122,9382000.0,2 ,Sector 150
113,3.0,Ready to move,1495 ,11036,16500000.0,3 ,Sector 143
114,3.0,Ready to move,2215 ,7850,17300000.0,3 ,Sector 74
115,3.0,Ready to move,1375 ,3269,4494000.0,,Noida Extensions
116,4.0,Ready to move,3501 ,18500,64700000.0,3 ,Sector 107
117,3.0,Ready to move,1375 ,3269,4496000.0,2 ,Noida Extensions
118,3.0,Under Construction,1380 ,8261,11400000.0,2 ,Noida Extensions
119,4.0,Under Construction,1800 ,3511,6321000.0,4 ,Sector 73
120,,Resale,900 ,500,450000.0,,Yeida
121,,Resale,1000 ,800,800000.0,,Yeida
122,2.0,Under Construction,831 ,30084,25000000.0,,Sector 146
123,2.0,Ready to move,1110 ,9909,11000000.0,2 ,Sector 93
124,2.0,Ready to move,1299 ,9622,12500000.0,2 ,Sector 93
125,2.0,Ready to move,905 ,4475,4049000.0,,Sector 49
126,2.0,Ready to move,855 ,4502,3849000.0,,Sector 49
127,1.0,Ready to move,545 ,3486,1899000.0,,Sector 49
128,2.0,Under Construction,831 ,32742,27200000.0,,Sector 146
129,3.0,Ready to move,1585 ,6940,11000000.0,3 ,Sector 78
130,3.0,Ready to move,1345 ,6988,9400000.0,2 ,Sector 78
131,4.0,Ready to move,8500 ,15624,132800000.0,,Sector 150
132,4.0,Ready to move,4500 ,15624,70300000.0,4 ,Sector 150
133,4.0,Ready to move,3767 ,15625,58800000.0,,Sector 150
134,4.0,Ready to move,3150 ,15625,49200000.0,4 ,Sector 150
135,4.0,Ready to move,8000 ,15625,125000000.0,,Sector 150
136,4.0,Ready to move,5750 ,15625,89800000.0,6 ,Sector 150
137,3.0,Ready to move,1690 ,11000,18500000.0,,Sector 150
138,3.0,Ready to move,1495 ,11000,16400000.0,,Sector 150
139,2.0,Ready to move,1245 ,11000,13600000.0,,Sector 150
140,1.0,Ready to move,563 ,28364,15900000.0,,Sector 94
141,1.0,Ready to move,274 ,28430,7761000.0,,Sector 94
142,3.0,Under Construction,1620 ,7530,12200000.0,3 ,Sector 131
143,2.0,Under Construction,975 ,7025,6850000.0,2 ,Sector 131
144,4.0,Ready to move,3220 ,13999,45000000.0,,Sector 150
145,3.0,Ready to move,2190 ,13999,30600000.0,,Sector 150
146,3.0,Ready to move,2460 ,13999,34400000.0,,Sector 150
147,4.0,Ready to move,8250 ,15624,128900000.0,4 ,Sector 150
148,4.0,Ready to move,8500 ,15624,132800000.0,,Sector 150
149,4.0,Ready to move,4500 ,15624,70300000.0,4 ,Sector 150
150,4.0,Ready to move,3767 ,15625,58800000.0,,Sector 150
151,4.0,Ready to move,3150 ,15625,49200000.0,4 ,Sector 150
152,4.0,Ready to move,8000 ,15625,125000000.0,,Sector 150
153,4.0,Ready to move,5750 ,15625,89800000.0,6 ,Sector 150
154,3.0,Ready to move,1690 ,11000,18500000.0,,Sector 150
155,3.0,Ready to move,1495 ,11000,16400000.0,,Sector 150
156,2.0,Ready to move,1245 ,11000,13600000.0,,Sector 150
157,4.0,Ready to move,3501 ,18500,64700000.0,3 ,Sector 107
158,4.0,Ready to move,4482 ,18500,82900000.0,,Sector 107
159,5.0,Ready to move,6570 ,18500,121500000.0,,Sector 107
160,4.0,Under Construction,3300 ,13219,43600000.0,3 ,Sector 150
161,3.0,Under Construction,2350 ,13308,31200000.0,3 ,Sector 150
162,2.0,Ready to move,1250 ,6240,7800000.0,2 ,Sector 168
163,3.0,Under Construction,1675 ,12253,20500000.0,,Sector 150
164,3.0,Under Construction,1615 ,12263,19800000.0,2 ,Sector 150
165,3.0,Under Construction,1615 ,12263,19800000.0,2 ,Sector 150
166,3.0,Under Construction,1400 ,12303,17200000.0,3 ,Sector 150
167,3.0,Under Construction,1400 ,12303,17200000.0,3 ,Sector 150
168,3.0,Ready to move,1775 ,6478,11500000.0,3 ,Sector 119
169,2.0,Ready to move,900 ,3333,3000000.0,2 ,Sector 73
170,1.0,Ready to move,590 ,4025,2375000.0,1 ,Sector 73
171,1.0,Ready to move,600 ,4000,2400000.0,1 ,Sector 73
172,2.0,Ready to move,1202 ,7321,8800000.0,3 ,Sector 137
173,2.0,Ready to move,1111 ,2925,3250000.0,2 ,Noida Extensions
174,1.0,Ready to move,520 ,4230,2200000.0,1 ,Noida Extensions
175,3.0,Under Construction,3355 ,12995,43600000.0,3 ,Sector 150
176,3.0,Ready to move,1715 ,8746,15000000.0,4 ,Sector 137
177,2.0,Ready to move,900 ,3327,2995000.0,2 ,Sector 74
178,3.0,Ready to move,2460 ,9756,24000000.0,4 ,Sector 150
179,2.0,Ready to move,1100 ,3177,3495000.0,2 ,Sector 73
180,4.0,Ready to move,3355 ,12995,43600000.0,4 ,Sector 150
181,3.0,Ready to move,2555 ,12994,33200000.0,3 ,Sector 150
182,3.0,Ready to move,2040 ,12990,26500000.0,3 ,Sector 150
183,3.0,Ready to move,2250 ,11777,26500000.0,3 ,Sector 150
184,3.0,Ready to move,2230 ,14484,32300000.0,3 ,Sector 150
185,3.0,Ready to move,2230 ,14394,32100000.0,3 ,Sector 150
186,3.0,Ready to move,2230 ,14304,31900000.0,3 ,Sector 150
187,3.0,Ready to move,2230 ,14484,32300000.0,3 ,Sector 150
188,3.0,Ready to move,1539 ,32748,50400000.0,3 ,Sector 146
189,3.0,Ready to move,1539 ,32683,50300000.0,3 ,Sector 146
190,3.0,Ready to move,2450 ,11020,27000000.0,3 ,Sector 150
191,3.0,Under Construction,1400 ,7000,9800000.0,,Sector 25 Yamuna Express Way
192,3.0,Ready to move,1405 ,6750,9483000.0,2 ,Sector 22D Yamuna Expressway
193,2.0,Ready to move,920 ,6750,6210000.0,2 ,Sector 22D Yamuna Expressway
194,2.0,Ready to move,1045 ,6750,7053000.0,1 ,Sector 22D Yamuna Expressway
195,3.0,Ready to move,1935 ,5850,11300000.0,,Sector 25 Yamuna Express Way
196,2.0,Ready to move,1000 ,5500,5500000.0,,Sector 25 Yamuna Express Way
197,2.0,Ready to move,1140 ,5550,6327000.0,,Sector 25 Yamuna Express Way
198,2.0,Ready to move,1115 ,5550,6188000.0,,Sector 25 Yamuna Express Way
199,4.0,Ready to move,4350 ,5550,24100000.0,,Sector 25 Yamuna Express Way
200,1.0,Ready to move,595 ,4008,2385000.0,1 ,Sector 73
201,3.0,Ready to move,2095 ,11503,24100000.0,4 ,Sector 137
202,3.0,Ready to move,1495 ,11371,17000000.0,3 ,Sector 143
203,7.0,Ready to move,1750 ,24857,43500000.0,7 ,Sector 26
204,2.0,Ready to move,1100 ,2954,3250000.0,2 ,Noida Extensions
205,2.0,Ready to move,1040 ,3173,3300000.0,1 ,Noida Extensions
206,3.0,Ready to move,1139 ,3643,4150000.0,2 ,Noida Extensions
207,3.0,Ready to move,1900 ,6842,13000000.0,3 ,Sector 78
208,4.0,Ready to move,1725 ,7304,12600000.0,5 ,Sector 137
209,2.0,Ready to move,1110 ,2972,3299000.0,2 ,Noida Extensions
210,4.0,Under Construction,2990 ,11003,32900000.0,4 ,Sector 150
211,2.0,Ready to move,1050 ,3190,3350000.0,2 ,Noida Extensions
212,2.0,Ready to move,1290 ,10852,14000000.0,2 ,Sector 78
213,3.0,Ready to move,1550 ,10645,16500000.0,3 ,Sector 78
214,3.0,Under Construction,1549 ,8457,13000000.0,,Noida Extensions
215,4.0,Under Construction,2038 ,8391,17100000.0,,Noida Extensions
216,3.0,Under Construction,1549 ,8457,13000000.0,,Noida Extensions
217,4.0,Under Construction,2038 ,8391,17100000.0,,Noida Extensions
218,1.0,Ready to move,262 ,28367,7432000.0,,Sector 94
219,1.0,Ready to move,282 ,28345,7993000.0,,Sector 94
220,1.0,Ready to move,298 ,28423,8441000.0,,Sector 94
221,1.0,Ready to move,277 ,28420,7843000.0,,Sector 94
222,3.0,Under Construction,1549 ,8457,13000000.0,,Noida Extensions
223,4.0,Under Construction,2038 ,8391,17100000.0,,Noida Extensions
224,3.0,Under Construction,1549 ,8457,13000000.0,,Noida Extensions
225,4.0,Under Construction,2038 ,8391,17100000.0,,Noida Extensions
226,3.0,Under Construction,2555 ,13000,33200000.0,,Sector 150
227,3.0,Under Construction,1900 ,12210,23200000.0,,Sector 143B
228,3.0,Ready to move,1450 ,2896,4200000.0,3 ,Noida Extensions
229,3.0,Ready to move,1450 ,3103,4500000.0,2 ,Noida Extensions
230,3.0,Ready to move,2050 ,3819,7830000.0,4 ,Noida Extensions
231,3.0,Ready to move,1450 ,2965,4300000.0,3 ,Noida Extensions
232,2.0,Ready to move,1050 ,3047,3200000.0,2 ,Noida Extensions
233,2.0,Ready to move,1050 ,3047,3200000.0,2 ,Noida Extensions
234,2.0,Ready to move,1050 ,3047,3200000.0,2 ,Noida Extensions
235,3.0,Ready to move,1700 ,12000,20400000.0,3 ,Sector 150
236,3.0,Ready to move,2230 ,14394,32100000.0,3 ,Sector 150
237,3.0,Ready to move,1615 ,12260,19800000.0,3 ,Sector 150
238,3.0,Ready to move,2350 ,12297,28900000.0,3 ,Sector 150
239,3.0,Ready to move,2230 ,14439,32200000.0,3 ,Sector 150
240,1.0,Ready to move,600 ,3868,2321000.0,1 ,Sector 73
241,2.0,Ready to move,1100 ,3136,3450000.0,2 ,Sector 74
242,3.0,Ready to move,1200 ,3500,4200000.0,2 ,Sector 73
243,4.0,Ready to move,2283 ,12702,29000000.0,4 ,Sector 107
244,2.0,Ready to move,900 ,3333,3000000.0,2 ,Sector 74
245,3.0,Under Construction,1380 ,8261,11400000.0,2 ,Noida Extensions
246,3.0,Under Construction,1549 ,8457,13000000.0,,Noida Extensions
247,3.0,Under Construction,1549 ,8457,13000000.0,,Noida Extensions
248,4.0,Under Construction,2038 ,8391,17100000.0,,Noida Extensions
249,4.0,Under Construction,2038 ,8391,17100000.0,,Noida Extensions
250,3.0,Under Construction,1769 ,16393,29000000.0,3 ,Sector 117
251,3.0,Under Construction,1915 ,15613,29900000.0,5 ,Sector 150
252,3.0,Ready to move,1375 ,3400,4675000.0,2 ,Sector 74
253,4.0,Under Construction,2990 ,10634,31700000.0,4 ,Sector 150
254,4.0,Under Construction,2990 ,11070,33100000.0,4 ,Sector 150
255,4.0,Under Construction,2990 ,11070,33100000.0,4 ,Sector 150
256,4.0,Under Construction,2990 ,10100,30200000.0,4 ,Sector 150
257,4.0,Under Construction,2990 ,11003,32900000.0,4 ,Sector 150
258,3.0,Ready to move,1870 ,8556,16000000.0,4 ,Sector 77
259,3.0,Under Construction,1779 ,18549,33000000.0,3 ,Sector 75
260,3.0,Under Construction,1779 ,18549,33000000.0,3 ,Sector 75
261,4.0,Under Construction,2990 ,11003,32900000.0,4 ,Sector 150
262,3.0,Under Construction,1969 ,15185,29900000.0,4 ,Sector 117
263,3.0,Under Construction,1380 ,8261,11400000.0,2 ,Noida Extensions
264,3.0,Under Construction,1549 ,8457,13000000.0,,Noida Extensions
265,3.0,Under Construction,1549 ,8457,13000000.0,,Noida Extensions
266,4.0,Under Construction,2038 ,8391,17100000.0,,Noida Extensions
267,4.0,Under Construction,2038 ,8391,17100000.0,,Noida Extensions
268,3.0,Ready to move,2012 ,12425,25000000.0,4 ,Sector 100
269,1.0,Ready to move,650 ,3616,2351000.0,1 ,Sector 74
270,2.0,Ready to move,1100 ,3136,3450000.0,2 ,Sector 74
271,3.0,Ready to move,1200 ,3500,4200000.0,2 ,Sector 73
272,4.0,Ready to move,2283 ,12702,29000000.0,4 ,Sector 107
273,2.0,Ready to move,900 ,3333,3000000.0,2 ,Sector 74
274,3.0,Under Construction,1915 ,15613,29900000.0,5 ,Sector 150
275,3.0,Under Construction,1769 ,16393,29000000.0,3 ,Sector 117
276,3.0,Under Construction,1620 ,7530,12200000.0,3 ,Sector 131
277,1.0,Ready to move,600 ,3868,2321000.0,1 ,Sector 73
278,7.0,Ready to move,1750 ,24857,43500000.0,7 ,Sector 26
279,2.0,Ready to move,1100 ,2954,3250000.0,2 ,Noida Extensions
280,2.0,Ready to move,1040 ,3173,3300000.0,1 ,Noida Extensions
281,3.0,Ready to move,1139 ,3643,4150000.0,2 ,Noida Extensions
282,3.0,Ready to move,1900 ,6842,13000000.0,3 ,Sector 78
283,4.0,Ready to move,1725 ,7304,12600000.0,5 ,Sector 137
284,2.0,Ready to move,1110 ,2972,3299000.0,2 ,Noida Extensions
285,4.0,Under Construction,2990 ,11003,32900000.0,4 ,Sector 150
286,2.0,Ready to move,1050 ,3190,3350000.0,2 ,Noida Extensions
287,3.0,Under Construction,1400 ,3107,4350000.0,3 ,Noida Extensions
288,1.0,Under Construction,600 ,4000,2400000.0,1 ,Noida Extensions
289,3.0,Ready to move,2095 ,11503,24100000.0,4 ,Sector 137
290,3.0,Ready to move,1495 ,11371,17000000.0,3 ,Sector 143
291,1.0,Ready to move,590 ,4025,2375000.0,1 ,Sector 73
292,1.0,Ready to move,600 ,4000,2400000.0,1 ,Sector 73
293,3.0,Under Construction,3355 ,12995,43600000.0,3 ,Sector 150
294,2.0,Ready to move,900 ,3333,3000000.0,2 ,Sector 73
295,1.0,Ready to move,595 ,4008,2385000.0,1 ,Sector 73
296,2.0,Ready to move,1010 ,3465,3500000.0,2 ,Noida Extensions
297,10.0,Ready to move,4200 ,76190,320000000.0,11 ,Sector 15A
298,10.0,Ready to move,15000 ,21333,320000000.0,11 ,Sector 15A
299,2.0,Ready to move,1202 ,7321,8800000.0,3 ,Sector 137
300,4.0,Under Construction,2990 ,11003,32900000.0,4 ,Sector 150
301,2.0,Ready to move,1050 ,3190,3350000.0,2 ,Noida Extensions
302,3.0,Under Construction,2230 ,10538,23500000.0,3 ,Sector 150
303,3.0,Ready to move,2012 ,12425,25000000.0,4 ,Sector 100
304,1.0,Ready to move,650 ,3616,2351000.0,1 ,Sector 74
305,4.0,Ready to move,2810 ,12099,34000000.0,5 ,Sector 93A
306,1.0,Ready to move,610 ,3852,2350000.0,1 ,Sector 73
307,3.0,Ready to move,1750 ,9028,15800000.0,3 ,Sector 150
308,3.0,Ready to move,1695 ,8849,15000000.0,3 ,Sector 137
309,3.0,Ready to move,1625 ,7000,11300000.0,2 ,Sector 150
310,3.0,Ready to move,1655 ,7327,12100000.0,3 ,Sector 150
311,3.0,Ready to move,2190 ,10045,22000000.0,4 ,Sector 150
312,3.0,Ready to move,2000 ,9000,18000000.0,3 ,Sector 150
313,3.0,Under Construction,1900 ,9000,17100000.0,4 ,Sector 143B
314,3.0,Ready to move,1470 ,8333,12200000.0,2 ,Sector 150
315,3.0,Ready to move,1675 ,8438,14100000.0,3 ,Sector 150
316,3.0,Ready to move,1400 ,12500,17500000.0,3 ,Sector 150
317,3.0,Ready to move,2750 ,11018,30300000.0,3 ,Sector 150
318,3.0,Ready to move,2850 ,11017,31400000.0,3 ,Sector 150
319,4.0,Ready to move,3355 ,12995,43600000.0,4 ,Sector 150
320,3.0,Under Construction,2555 ,13000,33200000.0,,Sector 150
321,3.0,Ready to move,1690 ,11000,18500000.0,,Sector 150
322,3.0,Ready to move,1495 ,11000,16400000.0,,Sector 150
323,2.0,Ready to move,1245 ,11000,13600000.0,,Sector 150
324,3.0,Ready to move,1690 ,10059,17000000.0,4 ,Sector 79
325,2.0,Under Construction,975 ,7025,6850000.0,2 ,Sector 131
326,3.0,Under Construction,1900 ,12210,23200000.0,,Sector 143B
327,2.0,Ready to move,1050 ,2904,3050000.0,2 ,Noida Extensions
328,2.0,Ready to move,1050 ,2900,3045000.0,2 ,Noida Extensions
329,3.0,Ready to move,1450 ,2896,4200000.0,3 ,Noida Extensions
330,3.0,Ready to move,3355 ,8554,28700000.0,3 ,Sector 150
331,3.0,Ready to move,2224 ,5190,11500000.0,,Sector 25 Yamuna Express Way
332,2.0,Ready to move,1656 ,5190,8594000.0,,Sector 25 Yamuna Express Way
333,2.0,Ready to move,1685 ,5190,8745000.0,,Sector 25 Yamuna Express Way
334,2.0,Ready to move,1256 ,5190,6518000.0,,Sector 25 Yamuna Express Way
335,2.0,Ready to move,1468 ,5190,7618000.0,,Sector 25 Yamuna Express Way
336,2.0,Ready to move,1435 ,5190,7447000.0,,Sector 25 Yamuna Express Way
337,3.0,Ready to move,2604 ,5190,13500000.0,,Sector 25 Yamuna Express Way
338,2.0,Ready to move,1035 ,7729,8000000.0,2 ,Sector 76
339,4.0,Ready to move,2800 ,14464,40500000.0,4 ,Sector 78
340,3.0,Ready to move,2230 ,14304,31900000.0,3 ,Sector 150
341,3.0,Ready to move,2230 ,14484,32300000.0,3 ,Sector 150
342,3.0,Ready to move,1539 ,32748,50400000.0,3 ,Sector 146
343,3.0,Ready to move,1539 ,32683,50300000.0,3 ,Sector 146
344,3.0,Ready to move,2450 ,11020,27000000.0,3 ,Sector 150
345,4.0,Ready to move,2400 ,5500,13200000.0,,Sector 16B
346,4.0,Ready to move,2500 ,5500,13700000.0,,Sector 16B
347,4.0,Ready to move,2875 ,5500,15800000.0,,Sector 16B
348,3.0,Ready to move,1545 ,8414,13000000.0,3 ,Sector 76
349,2.0,Ready to move,1035 ,7729,8000000.0,2 ,Sector 76
350,3.0,Ready to move,1971 ,11161,22000000.0,3 ,Sector 77
351,3.0,Ready to move,1420 ,8450,12000000.0,2 ,Sector 76
352,3.0,Ready to move,1690 ,9171,15500000.0,3 ,Sector 77
353,2.0,Ready to move,1700 ,27058,46000000.0,2 ,Sector 50
354,2.0,Ready to move,825 ,6545,5400000.0,2 ,Sector 137
355,2.0,Ready to move,1070 ,6074,6500000.0,2 ,Sector 137
356,2.0,Ready to move,960 ,6573,6311000.0,2 ,Sector 137
357,3.0,Ready to move,1725 ,11594,20000000.0,2 ,Sector 137
358,2.0,Ready to move,953 ,6190,5900000.0,2 ,Sector 151
359,3.0,Ready to move,1695 ,6194,10500000.0,4 ,Sector 137
360,3.0,Ready to move,1592 ,6281,10000000.0,3 ,Sector 137
361,2.0,Ready to move,1070 ,6074,6500000.0,2 ,Sector 137
362,3.0,Ready to move,1660 ,5421,9000000.0,2 ,Sector 137
363,3.0,Ready to move,1465 ,11262,16500000.0,3 ,Sector 76
364,2.0,Ready to move,953 ,6453,6150000.0,2 ,Sector 151
365,2.0,Ready to move,953 ,6190,5900000.0,2 ,Sector 151
366,4.0,Ready to move,2890 ,9136,26400000.0,,Sector 79
367,3.0,Ready to move,1495 ,10368,15500000.0,,Sector 79
368,4.0,Ready to move,1350 ,5593,7551000.0,3 ,Sector 151
369,3.0,Under Construction,1549 ,8000,12300000.0,3 ,Sector 150
370,2.0,Under Construction,1262 ,8000,10000000.0,2 ,Sector 150
371,4.0,Under Construction,3027 ,8000,24200000.0,4 ,Sector 150
372,4.0,Under Construction,2697 ,8000,21500000.0,4 ,Sector 150
373,3.0,Under Construction,2062 ,7081,14600000.0,,Sector 150
374,3.0,Under Construction,2330 ,7039,16400000.0,,Sector 150
375,3.0,Under Construction,1380 ,8262,11400000.0,2 ,Noida Extensions
376,3.0,Under Construction,1549 ,8458,13100000.0,,Noida Extensions
377,3.0,Under Construction,1549 ,8458,13100000.0,,Noida Extensions
378,4.0,Under Construction,2038 ,8392,17100000.0,,Noida Extensions
379,4.0,Under Construction,2038 ,8392,17100000.0,,Noida Extensions
380,3.0,Under Construction,1540 ,32741,50300000.0,,Sector 146
381,4.0,Under Construction,1714 ,32731,56100000.0,,Sector 146
382,4.0,Under Construction,3200 ,12800,40900000.0,,Sector 150
383,3.0,Under Construction,2000 ,12800,25600000.0,,Sector 150
384,4.0,Under Construction,3200 ,13226,42300000.0,4 ,Sector 150
385,3.0,Under Construction,2350 ,13308,31200000.0,3 ,Sector 150
386,3.0,Ready to move,2190 ,13999,30600000.0,,Sector 150
387,4.0,Under Construction,1819 ,39727,72200000.0,,Sector 150
388,4.0,Under Construction,1618 ,24032,38800000.0,4 ,Sector 150
389,3.0,Under Construction,1356 ,41294,55900000.0,,Sector 150
390,3.0,Under Construction,1223 ,24032,29300000.0,,Sector 150
391,3.0,Under Construction,1361 ,24032,32700000.0,,Sector 150
392,2.0,Under Construction,893 ,24032,21400000.0,,Sector 150
393,4.0,Under Construction,2164 ,24032,52000000.0,,Sector 150
394,3.0,Under Construction,1227 ,40386,49500000.0,,Sector 150
395,4.0,Under Construction,1927 ,24032,46300000.0,,Sector 150
396,4.0,Under Construction,1615 ,38689,62400000.0,,Sector 150
397,2.0,Under Construction,745 ,24032,17900000.0,,Sector 150
398,3.0,Under Construction,1130 ,40556,45800000.0,,Sector 150
399,3.0,Under Construction,1129 ,24032,27100000.0,3 ,Sector 150
400,2.0,Under Construction,743 ,24032,17800000.0,,Sector 150
401,3.0,Ready to move,1550 ,10645,16500000.0,3 ,Sector 78
402,3.0,Ready to move,1835 ,8991,16500000.0,3 ,Sector 76
403,3.0,Ready to move,1420 ,9000,12700000.0,3 ,Sector 77
404,3.0,Under Construction,1800 ,14444,26000000.0,3 ,Sector 146
405,3.0,Under Construction,1758 ,15642,27500000.0,3 ,Sector 146
406,4.0,Ready to move,4000 ,20000,80000000.0,5 ,Sector 128
407,4.0,Ready to move,4000 ,20250,81000000.0,5 ,Sector 128
408,3.0,Ready to move,1947 ,13097,25500000.0,3 ,Sector 150
409,2.0,Ready to move,1266 ,11216,14200000.0,2 ,Sector 150
410,3.0,Under Construction,1575 ,9841,15500000.0,3 ,Sector 150
411,2.0,Under Construction,1266 ,11690,14800000.0,2 ,Sector 150
412,3.0,Under Construction,2440 ,13319,32500000.0,4 ,Sector 150
413,3.0,Ready to move,2190 ,13242,29000000.0,3 ,Sector 150
414,3.0,Ready to move,1750 ,13142,23000000.0,3 ,Sector 150
415,3.0,Under Construction,2440 ,13155,32100000.0,4 ,Sector 150
416,3.0,Under Construction,1907 ,11431,21800000.0,3 ,Sector 150
417,4.0,Ready to move,3027 ,12058,36500000.0,4 ,Sector 150
418,4.0,Under Construction,2700 ,12222,33000000.0,5 ,Sector 150
419,3.0,Under Construction,1947 ,13353,26000000.0,3 ,Sector 150
420,4.0,Ready to move,3027 ,12058,36500000.0,4 ,Sector 150
421,4.0,Under Construction,2700 ,12222,33000000.0,5 ,Sector 150
422,3.0,Under Construction,1947 ,13353,26000000.0,3 ,Sector 150
423,4.0,Under Construction,3198 ,13602,43500000.0,4 ,Sector 150
424,4.0,Ready to move,2700 ,12037,32500000.0,4 ,Sector 150
425,3.0,Ready to move,1404 ,9971,14000000.0,2 ,Sector 150
426,3.0,Ready to move,2062 ,11396,23500000.0,3 ,Sector 150
427,4.0,Ready to move,3198 ,13289,42500000.0,4 ,Sector 150
428,4.0,Ready to move,3198 ,13602,43500000.0,5 ,Sector 150
429,3.0,Under Construction,2062 ,11154,23000000.0,4 ,Sector 150
430,,New,204 ,53921,11000000.0,,Sector 25 Yamuna Express Way
431,,New,1350 ,10000,13500000.0,,Sector 150
432,,New,990 ,9090,9000000.0,,Sector 150
433,,New,1008 ,10714,10800000.0,,Sector 149
434,,New,45360 ,1103,50000000.0,,Sector 135
435,,New,8985 ,1103,9910000.0,,Sector 135
436,,New,34317 ,1103,37800000.0,,Sector 135
437,,New,36288 ,1103,40000000.0,,Sector 135
438,,New,22878 ,1103,25200000.0,,Sector 135
439,,New,18144 ,1103,20000000.0,,Sector 135
440,,New,1881 ,5582,10500000.0,,Sector 25 Yamuna Express Way
441,,New,45360 ,1103,50000000.0,,Sector 135
442,,New,8985 ,1103,9910000.0,,Sector 135
443,,New,34317 ,1103,37800000.0,,Sector 135
444,,New,36288 ,1103,40000000.0,,Sector 135
445,,New,22878 ,1103,25200000.0,,Sector 135
446,,New,18144 ,1103,20000000.0,,Sector 135
447,,New,11439 ,1103,12600000.0,,Sector 135
448,,New,9072 ,1103,10000000.0,,Sector 135
449,2.0,Ready to move,1355 ,8118,11000000.0,2 ,Phase 2 Noida Extension
450,2.0,Ready to move,915 ,8743,8000000.0,2 ,Sector 78
451,3.0,Ready to move,1385 ,9747,13500000.0,2 ,Sector 77
452,4.0,Under Construction,2450 ,6300,15400000.0,5 ,Phase 2 Noida Extension
453,4.0,Under Construction,3200 ,12500,40000000.0,4 ,Sector 146
454,2.0,Ready to move,1250 ,10400,13000000.0,2 ,Sector 78
455,2.0,Ready to move,1150 ,9217,10600000.0,2 ,Sector 76
456,3.0,Ready to move,2350 ,11489,27000000.0,3 ,Sector 50
457,5.0,Under Construction,8250 ,15757,130000000.0,6 ,Sector 150
458,3.0,Ready to move,1765 ,10764,19000000.0,4 ,Sector 77
459,2.0,Under Construction,1775 ,13183,23400000.0,2 ,Sector 152
460,3.0,Ready to move,1735 ,11815,20500000.0,3 ,Sector 77
461,4.0,Ready to move,2955 ,13536,40000000.0,5 ,Sector 137
462,,Resale,1377 ,21060,29000000.0,,Sector 133
463,3.0,Ready to move,2548 ,10518,26800000.0,4 ,Sector 50
464,2.0,Ready to move,936 ,21153,19800000.0,4 ,Sector 146
465,5.0,Ready to move,5400 ,12500,67500000.0,4 ,Sector 94
466,3.0,Ready to move,3284 ,10505,34500000.0,4 ,Sector 50
467,3.0,Ready to move,2334 ,7026,16400000.0,3 ,Sector 150
468,3.0,Ready to move,2100 ,14523,30500000.0,4 ,Sector 128
469,2.0,Ready to move,1034 ,20599,21300000.0,4 ,Sector 43
470,4.0,Ready to move,1900 ,9000,17100000.0,3 ,Sector 143B
471,3.0,Ready to move,1600 ,8312,13300000.0,3 ,Sector 143B
472,3.0,Under Construction,4315 ,18315,79000000.0,3 ,Sector 94
473,3.0,Ready to move,2190 ,12813,28000000.0,2 ,Sector 150
474,3.0,Under Construction,2061 ,11159,23000000.0,4 ,Sector 150
475,3.0,Under Construction,3200 ,12812,41000000.0,4 ,Sector 150
476,3.0,Under Construction,2350 ,13191,31000000.0,4 ,Sector 150
477,4.0,Under Construction,3200 ,12500,40000000.0,5 ,Sector 150
478,3.0,Ready to move,2034 ,12790,26000000.0,3 ,Sector 117
479,3.0,Under Construction,3270 ,17335,56600000.0,3 ,Sector 94
480,3.0,Ready to move,2460 ,13983,34400000.0,3 ,Sector 150
481,3.0,Ready to move,1750 ,9390,16400000.0,3 ,Sector 150
482,3.0,Ready to move,1750 ,14000,24500000.0,3 ,Sector 150
483,4.0,Ready to move,3220 ,14006,45100000.0,4 ,Sector 150
484,4.0,Ready to move,3220 ,13282,42700000.0,4 ,Sector 150
485,4.0,Ready to move,3220 ,13881,44700000.0,4 ,Sector 150
486,3.0,Ready to move,3270 ,13761,45000000.0,3 ,Sector 94
487,4.0,Under Construction,3200 ,12218,39100000.0,5 ,Sector 150
488,3.0,Under Construction,2061 ,11014,22700000.0,4 ,Sector 150
489,3.0,Under Construction,2350 ,11489,27000000.0,4 ,Sector 150
490,2.0,Ready to move,1180 ,7033,8300000.0,2 ,Sector 76
491,3.0,Ready to move,1690 ,7076,11900000.0,2 ,Sector 150
492,3.0,Ready to move,1245 ,7611,9476000.0,2 ,Sector 150
493,3.0,Ready to move,1495 ,13244,19800000.0,3 ,Sector 150
494,3.0,Under Construction,1800 ,12422,22300000.0,3 ,Sector 146
495,3.0,Ready to move,3355 ,4818,16100000.0,3 ,Sector 150
496,3.0,Under Construction,2200 ,13791,30300000.0,3 ,Sector 146
497,3.0,Ready to move,1625 ,7028,11400000.0,2 ,Sector 150
498,3.0,Ready to move,2050 ,7317,15000000.0,3 ,Sector 150
499,2.0,Ready to move,1080 ,8611,9300000.0,2 ,Sector 78
500,3.0,Ready to move,2260 ,13672,30900000.0,4 ,Sector 93A
501,3.0,Ready to move,1785 ,10308,18400000.0,3 ,Sector 93A
502,4.0,Under Construction,3500 ,13714,48000000.0,4 ,Sector 150
503,3.0,Under Construction,1914 ,14733,28200000.0,4 ,Sector 150
504,3.0,Under Construction,1800 ,13833,24900000.0,3 ,Sector 146
505,3.0,Under Construction,2500 ,18000,45000000.0,4 ,Sector 146
506,3.0,Ready to move,1477 ,16587,24500000.0,3 ,Sector 150
507,4.0,Under Construction,2450 ,8000,19600000.0,,Phase 2 Noida Extension
508,3.0,Under Construction,1895 ,8000,15100000.0,,Phase 2 Noida Extension
509,3.0,Under Construction,1355 ,8000,10800000.0,,Phase 2 Noida Extension
510,3.0,Under Construction,1600 ,8000,12800000.0,,Phase 2 Noida Extension
511,3.0,Ready to move,2260 ,13716,31000000.0,4 ,Sector 93A
512,3.0,Under Construction,1548 ,9366,14500000.0,3 ,Sector 150
513,3.0,Under Construction,2440 ,14344,35000000.0,3 ,Sector 150
514,3.0,Under Construction,2062 ,11396,23500000.0,3 ,Sector 150
515,3.0,Under Construction,1548 ,8720,13500000.0,3 ,Sector 150
516,3.0,Under Construction,2062 ,10184,21000000.0,3 ,Sector 150
517,3.0,Under Construction,2062 ,11154,23000000.0,3 ,Sector 150
518,5.0,Ready to move,5600 ,10714,60000000.0,5 ,Sector 78
519,3.0,Under Construction,2062 ,10184,21000000.0,3 ,Sector 150
520,4.0,Ready to move,9000 ,16666,150000000.0,5 ,Sector 104
521,3.0,Ready to move,2304 ,12977,29900000.0,3 ,Sector 117
522,3.0,Ready to move,2034 ,12979,26400000.0,3 ,Sector 117
523,5.0,Under Construction,6250 ,14720,92000000.0,5 ,Sector 128
524,4.0,Ready to move,4700 ,13829,65000000.0,5 ,Sector 79
525,3.0,Under Construction,2570 ,16926,43500000.0,3 ,Sector 43
526,4.0,Ready to move,4200 ,16904,71000000.0,5 ,Sector 128
527,5.0,Under Construction,6250 ,14400,90000000.0,5 ,Sector 128
528,3.0,Under Construction,2500 ,15200,38000000.0,3 ,Sector 146
529,5.0,Under Construction,3750 ,18133,68000000.0,5 ,Sector 43
530,3.0,Under Construction,1545 ,16181,25000000.0,3 ,Sector 43
531,2.0,Ready to move,1380 ,11014,15200000.0,2 ,Sector 94
532,4.0,Ready to move,2727 ,12981,35400000.0,4 ,Sector 117
533,3.0,Ready to move,3200 ,13125,42000000.0,4 ,Sector 94
534,,Ready to move,645 ,13023,8400000.0,1 ,Sector 94
535,2.0,Ready to move,1380 ,10869,15000000.0,2 ,Sector 94
536,5.0,Ready to move,5700 ,14912,85000000.0,6 ,Sector 128
537,,Ready to move,690 ,14057,9700000.0,1 ,Sector 94
538,2.0,Under Construction,1548 ,10335,16000000.0,2 ,Sector 150
539,5.0,Ready to move,5600 ,10892,61000000.0,5 ,Sector 78
540,,Ready to move,560 ,13928,7800000.0,1 ,Sector 94
541,3.0,Ready to move,3200 ,12031,38500000.0,4 ,Sector 94
542,,Ready to move,560 ,15178,8500000.0,1 ,Sector 94
543,3.0,Ready to move,2105 ,11401,24000000.0,3 ,Sector 94
544,3.0,Ready to move,2105 ,10926,23000000.0,3 ,Sector 94
545,3.0,Ready to move,3200 ,14062,45000000.0,4 ,Sector 94
546,3.0,Ready to move,2105 ,11163,23500000.0,3 ,Sector 94
547,3.0,Ready to move,3200 ,12500,40000000.0,4 ,Sector 94
548,,Ready to move,645 ,14883,9600000.0,1 ,Sector 94
549,2.0,Under Construction,1350 ,12370,16700000.0,2 ,Sector 152
550,2.0,Under Construction,1350 ,12444,16800000.0,2 ,Sector 152
551,5.0,Ready to move,6750 ,8888,60000000.0,5 ,Sector 79
552,3.0,Under Construction,1947 ,13353,26000000.0,3 ,Sector 150
553,4.0,Under Construction,3198 ,14071,45000000.0,4 ,Sector 150
554,3.0,Under Construction,2440 ,14754,36000000.0,3 ,Sector 150
555,3.0,Under Construction,1947 ,13251,25800000.0,3 ,Sector 150
556,3.0,Ready to move,1910 ,3699,7065000.0,,Phase 2 Noida Extension
557,3.0,Ready to move,2500 ,12000,30000000.0,3 ,Sector 78
558,4.0,Ready to move,4425 ,12655,56000000.0,4 ,Sector 78
559,4.0,Ready to move,3430 ,13119,45000000.0,4 ,Sector 78
560,3.0,Ready to move,2500 ,12000,30000000.0,3 ,Sector 78
561,4.0,Ready to move,4425 ,12655,56000000.0,4 ,Sector 78
562,4.0,Ready to move,3430 ,13119,45000000.0,4 ,Sector 78
563,3.0,Ready to move,2500 ,12000,30000000.0,3 ,Sector 78
564,4.0,Ready to move,3165 ,17693,56000000.0,5 ,Sector 44
565,4.0,Ready to move,3165 ,17851,56500000.0,5 ,Sector 44
566,4.0,Ready to move,3115 ,17174,53500000.0,5 ,Sector 104
567,4.0,Ready to move,4900 ,13469,66000000.0,5 ,Sector 93A
568,4.0,Ready to move,4900 ,12244,60000000.0,5 ,Sector 93A
569,4.0,Under Construction,2450 ,8000,19600000.0,,Phase 2 Noida Extension
570,3.0,Under Construction,1895 ,8000,15100000.0,,Phase 2 Noida Extension
571,3.0,Under Construction,1355 ,8000,10800000.0,,Phase 2 Noida Extension
572,3.0,Under Construction,1600 ,8000,12800000.0,,Phase 2 Noida Extension
573,4.0,Ready to move,3850 ,18441,71000000.0,5 ,Sector 93B
574,3.0,Ready to move,1660 ,5200,8632000.0,3 ,Sector 137
575,3.0,Ready to move,1295 ,6254,8100000.0,2 ,Sector 137
576,4.0,Under Construction,3530 ,16997,60000000.0,,Sector 45
577,5.0,Under Construction,5935 ,19477,115600000.0,,Sector 94
578,4.0,Under Construction,4315 ,19304,83300000.0,4 ,Sector 94
579,3.0,Under Construction,2975 ,16672,49600000.0,,Sector 45
580,3.0,Ready to move,1420 ,8802,12500000.0,2 ,Sector 76
581,2.0,Ready to move,1200 ,3500,4200000.0,2 ,Sector 49
582,2.0,Ready to move,1170 ,3589,4200000.0,2 ,Sector 49
583,1.0,Ready to move,840 ,3214,2700000.0,1 ,Sector 49
584,3.0,Under Construction,1549 ,8458,13100000.0,,Noida Extensions
585,4.0,Under Construction,2038 ,8392,17100000.0,,Noida Extensions
586,4.0,Ready to move,1300 ,13076,17000000.0,3 ,rho 2
587,4.0,Ready to move,4000 ,5000,20000000.0,5 ,Sector 76
588,3.0,Ready to move,1550 ,3290,5100000.0,3 ,Noida Extensions
589,3.0,Ready to move,1550 ,3322,5150000.0,3 ,Noida Extensions
590,3.0,Ready to move,1550 ,3354,5200000.0,3 ,Noida Extensions
591,3.0,Ready to move,1200 ,4166,5000000.0,3 ,Noida Extensions
592,2.0,Ready to move,1165 ,9871,11500000.0,2 ,Sector 150
593,5.0,Ready to move,5500 ,9090,50000000.0,5 ,Sector 41
594,9.0,Ready to move,7000 ,8571,60000000.0,6 ,Sector 41
595,3.0,Ready to move,1743 ,22948,40000000.0,3 ,Sector 108
596,3.0,Ready to move,2400 ,20833,50000000.0,3 ,Sector 92
597,4.0,Ready to move,3000 ,7233,21700000.0,4 ,Phase 2 Noida Extension
598,3.0,Ready to move,540 ,3333,1799000.0,,Sector 102
599,2.0,Ready to move,450 ,3333,1499000.0,,Sector 102
600,3.0,Under Construction,2177 ,9990,21700000.0,,Sector 120
601,4.0,Ready to move,3600 ,8055,29000000.0,3 ,Sector 41
602,3.0,Ready to move,1455 ,9484,13800000.0,2 ,Sector 76
603,1.0,Ready to move,655 ,3689,2416000.0,1 ,Sector 74
604,3.0,Ready to move,1375 ,3236,4450000.0,2 ,Sector 73
605,1.0,Ready to move,650 ,3346,2175000.0,1 ,Sector 73
606,4.0,Ready to move,1825 ,3756,6855000.0,2 ,Sector 74
607,2.0,Ready to move,1020 ,3290,3356000.0,2 ,Sector 73
608,1.0,Ready to move,655 ,3305,2165000.0,1 ,Sector 74
609,4.0,Ready to move,1850 ,3810,7050000.0,3 ,Sector 73
610,1.0,Ready to move,650 ,3567,2319000.0,1 ,Sector 73
611,1.0,Ready to move,655 ,3696,2421000.0,1 ,Sector 73
612,2.0,Ready to move,1000 ,3602,3602000.0,2 ,Sector 73
613,4.0,Ready to move,1850 ,3675,6800000.0,2 ,Sector 74
614,3.0,Ready to move,1375 ,3236,4450000.0,2 ,Sector 74
615,2.0,Ready to move,1025 ,3510,3598000.0,2 ,Sector 73
616,1.0,Ready to move,650 ,3694,2401000.0,1 ,Sector 73
617,2.0,Ready to move,1005 ,3333,3350000.0,2 ,Sector 73
618,1.0,Ready to move,650 ,3557,2312000.0,1 ,Sector 73
619,1.0,Ready to move,650 ,3560,2314000.0,1 ,Sector 73
620,1.0,Ready to move,655 ,3696,2421000.0,1 ,Sector 73
621,2.0,Ready to move,1000 ,3602,3602000.0,2 ,Sector 73
622,2.0,Ready to move,1050 ,3526,3702000.0,2 ,Sector 73
623,2.0,Ready to move,985 ,3393,3342000.0,2 ,Sector 120
624,1.0,Ready to move,650 ,3567,2319000.0,1 ,Sector 73
625,3.0,Ready to move,1390 ,10071,14000000.0,2 ,Sector 77
626,2.0,Ready to move,1035 ,7246,7500000.0,2 ,Sector 76
627,3.0,Ready to move,1690 ,11834,20000000.0,2 ,Sector 79
628,3.0,Ready to move,1827 ,15599,28500000.0,3 ,Sector 121
629,3.0,Ready to move,1775 ,5633,10000000.0,4 ,Sector 119
630,3.0,Ready to move,1620 ,13580,22000000.0,2 ,Sector 121
631,3.0,Ready to move,1550 ,11290,17500000.0,3 ,Sector 78
632,3.0,Under Construction,2304 ,15190,35000000.0,4 ,Sector 117
633,4.0,Under Construction,3195 ,15649,50000000.0,5 ,Sector 117
634,5.0,Under Construction,6250 ,12480,78000000.0,6 ,Sector 128
635,5.0,Ready to move,5600 ,10267,57500000.0,6 ,Sector 78
636,5.0,Ready to move,4720 ,14830,70000000.0,4 ,Sector 79
637,5.0,Ready to move,6750 ,8148,55000000.0,6 ,Sector 79
638,2.0,Ready to move,1150 ,5652,6500000.0,2 ,Sector 74
639,3.0,Ready to move,1455 ,8591,12500000.0,2 ,Sector 76
640,2.0,Ready to move,915 ,8852,8100000.0,2 ,Sector 78
641,5.0,Ready to move,5600 ,10267,57500000.0,6 ,Sector 78
642,5.0,Ready to move,4720 ,14830,70000000.0,4 ,Sector 79
643,5.0,Ready to move,6750 ,8148,55000000.0,6 ,Sector 79
644,2.0,Ready to move,1150 ,5652,6500000.0,2 ,Sector 63
645,2.0,Ready to move,1145 ,9606,11000000.0,2 ,Sector 77
646,2.0,Ready to move,1250 ,10320,12900000.0,2 ,Sector 78
647,3.0,Ready to move,1385 ,10108,14000000.0,2 ,Sector 77
648,2.0,Ready to move,1250 ,10640,13300000.0,2 ,Sector 78
649,3.0,Ready to move,1540 ,8441,13000000.0,3 ,Sector 76
650,3.0,Ready to move,1730 ,14450,25000000.0,3 ,Sector 79
651,4.0,Ready to move,2115 ,11583,24500000.0,3 ,Sector 77
652,4.0,Under Construction,2799 ,15183,42500000.0,4 ,Sector 117
653,3.0,Under Construction,2034 ,14749,30000000.0,3 ,Sector 117
654,2.0,Ready to move,1295 ,9266,12000000.0,2 ,Sector 75
655,3.0,Ready to move,1550 ,10645,16500000.0,3 ,Sector 78
656,5.0,Ready to move,6750 ,8148,55000000.0,6 ,Sector 79
657,3.0,Under Construction,2550 ,16470,42000000.0,3 ,Sector 146
658,4.0,Under Construction,3938 ,17775,70000000.0,5 ,Sector 128
659,2.0,Ready to move,1140 ,7456,8500000.0,2 ,Sector 45
660,2.0,Ready to move,1140 ,7017,8000000.0,2 ,Sector 45
661,2.0,Ready to move,1140 ,7456,8500000.0,2 ,Sector 45
662,2.0,Ready to move,1015 ,7389,7500000.0,2 ,Sector 76
663,2.0,Ready to move,1135 ,9074,10300000.0,2 ,Sector 77
664,4.0,Under Construction,2511 ,13000,32600000.0,4 ,Sector 75
665,3.0,Under Construction,2124 ,13000,27600000.0,3 ,Sector 75
666,3.0,Under Construction,1656 ,13000,21500000.0,2 ,Sector 75
667,4.0,Ready to move,3501 ,18500,64700000.0,3 ,Sector 107
668,4.0,Ready to move,4482 ,18500,82900000.0,,Sector 107
669,5.0,Ready to move,6570 ,18500,121500000.0,,Sector 107
670,3.0,Ready to move,1645 ,13373,22000000.0,3 ,Sector 79
671,,New,540 ,3333,1799000.0,,Sector 102
672,,New,450 ,3333,1499000.0,,Sector 102
673,,New,630 ,3333,2099000.0,,Sector 102
674,,New,900 ,3333,2999000.0,,Sector 102
675,3.0,Ready to move,1690 ,11242,19000000.0,3 ,Sector 79
676,2.0,Ready to move,1245 ,10843,13500000.0,2 ,Sector 79
677,3.0,Ready to move,1550 ,10967,17000000.0,3 ,Sector 78
678,4.0,Ready to move,3590 ,5750,20600000.0,3 ,Sector 168
679,3.0,Ready to move,2100 ,5750,12000000.0,2 ,Sector 168
680,3.0,Ready to move,2230 ,5750,12800000.0,3 ,Sector 168
681,1.0,Ready to move,685 ,5800,3973000.0,1 ,Sector 168
682,4.0,Ready to move,3500 ,5750,20100000.0,3 ,Sector 168
683,3.0,Ready to move,2185 ,5750,12500000.0,3 ,Sector 168
684,4.0,Ready to move,2700 ,5750,15500000.0,4 ,Sector 168
685,3.0,Ready to move,1750 ,5750,10000000.0,2 ,Sector 168
686,1.0,Ready to move,615 ,5800,3567000.0,1 ,Sector 168
687,3.0,Ready to move,1955 ,5250,10200000.0,,Sector 168
688,3.0,Ready to move,2275 ,5750,13000000.0,3 ,Sector 168
689,4.0,Ready to move,2740 ,5750,15700000.0,3 ,Sector 168
690,3.0,Ready to move,3150 ,12500,39300000.0,,Sector 128
691,4.0,Ready to move,3650 ,12500,45600000.0,3 ,Sector 128
692,3.0,Under Construction,3270 ,19114,62500000.0,3 ,Sector 94
693,3.0,Under Construction,1540 ,32741,50300000.0,,Sector 146
694,2.0,Ready to move,1885 ,13500,25400000.0,2 ,Sector 128
695,3.0,Under Construction,978 ,32753,32000000.0,,Sector 146
696,5.0,Under Construction,5935 ,19477,115600000.0,,Sector 94
697,5.0,Ready to move,6700 ,12500,83700000.0,,Sector 128
698,2.0,Under Construction,831 ,32742,27200000.0,,Sector 146
699,4.0,Under Construction,4700 ,18106,85000000.0,3 ,Sector 144
700,4.0,Under Construction,4315 ,19304,83300000.0,4 ,Sector 94
701,3.0,Ready to move,2670 ,12500,33300000.0,4 ,Sector 128
702,4.0,Under Construction,1714 ,32731,56100000.0,,Sector 146
703,4.0,Under Construction,2364 ,38070,89900000.0,,Sector 128
704,4.0,Under Construction,2840 ,36619,103900000.0,,Sector 128
705,5.0,Under Construction,4613 ,56336,259800000.0,,Sector 128
706,4.0,Under Construction,2824 ,36827,104000000.0,,Sector 128
707,4.0,Under Construction,2381 ,38277,91000000.0,,Sector 128
708,4.0,Ready to move,4482 ,18500,82900000.0,,Sector 107
709,5.0,Ready to move,6570 ,18500,121500000.0,,Sector 107
710,3.0,Ready to move,1500 ,15333,23000000.0,3 ,Sector 93A
711,3.0,Ready to move,1540 ,6623,10200000.0,3 ,Sector 76
712,3.0,Under Construction,2090 ,9000,18800000.0,,Noida Extensions
713,3.0,Under Construction,2110 ,9000,18900000.0,,Noida Extensions
714,3.0,Under Construction,1812 ,9000,16300000.0,,Noida Extensions
715,4.0,Under Construction,2638 ,9000,23700000.0,,Noida Extensions
716,4.0,Under Construction,2632 ,9000,23600000.0,,Noida Extensions
717,3.0,Under Construction,1860 ,9000,16700000.0,,Noida Extensions
718,3.0,Under Construction,2075 ,9000,18600000.0,,Noida Extensions
719,3.0,Ready to move,2100 ,11428,24000000.0,3 ,Sector 94
720,3.0,Ready to move,2460 ,14227,35000000.0,3 ,Sector 150
721,3.0,Ready to move,2095 ,9069,19000000.0,4 ,Sector 150
722,3.0,Under Construction,1404 ,9757,13700000.0,2 ,Sector 150
723,3.0,Under Construction,2440 ,9221,22500000.0,4 ,Sector 150
724,3.0,Under Construction,2395 ,8016,19200000.0,4 ,Yeida
725,3.0,Under Construction,2200 ,11363,25000000.0,3 ,Sector 77
726,3.0,Under Construction,1450 ,2620,3800000.0,,Noida Extensions
727,1.0,Under Construction,600 ,3000,1800000.0,,Noida Extensions
728,3.0,Ready to move,1550 ,10645,16500000.0,3 ,Sector 78
729,3.0,Under Construction,1800 ,14333,25800000.0,3 ,Sector 146
730,4.0,Ready to move,4700 ,16489,77500000.0,5 ,Sector 144
731,3.0,Under Construction,2563 ,16582,42500000.0,4 ,Sector 43
732,3.0,Under Construction,1700 ,12000,20400000.0,3 ,Sector 150
733,2.0,Ready to move,1137 ,9674,11000000.0,2 ,Sector 150
734,3.0,Ready to move,1575 ,9968,15700000.0,4 ,Sector 150
735,3.0,Ready to move,1550 ,2645,4100000.0,,Noida Extensions
736,3.0,Ready to move,1400 ,2571,3600000.0,,Noida Extensions
737,4.0,Under Construction,2700 ,7000,18900000.0,4 ,Phase 2 Noida Extension
738,4.0,Ready to move,3400 ,7007,23800000.0,4 ,Phase 2 Noida Extension
739,4.0,Ready to move,2700 ,7007,18900000.0,4 ,Phase 2 Noida Extension
740,4.0,Ready to move,3000 ,7010,21000000.0,4 ,Phase 2 Noida Extension
741,2.0,Ready to move,950 ,7368,7000000.0,2 ,Sector 134
742,2.0,Ready to move,995 ,3310,3294000.0,2 ,Noida Extensions
743,3.0,Ready to move,1355 ,3540,4797000.0,2 ,Noida Extensions
744,3.0,Ready to move,1410 ,3187,4494000.0,2 ,Noida Extensions
745,2.0,Ready to move,995 ,3312,3296000.0,2 ,Noida Extensions
746,3.0,Ready to move,1355 ,3318,4496000.0,2 ,Noida Extensions
747,2.0,Ready to move,1055 ,3218,3396000.0,2 ,Noida Extensions
748,2.0,Ready to move,1055 ,3218,3395000.0,2 ,Noida Extensions
749,2.0,Ready to move,1015 ,3248,3297000.0,2 ,Noida Extensions
750,3.0,Ready to move,1375 ,3270,4497000.0,3 ,Noida Extensions
751,2.0,Ready to move,1015 ,3247,3296000.0,2 ,Noida Extensions
752,3.0,Ready to move,1410 ,3189,4497000.0,3 ,Noida Extensions
753,3.0,Ready to move,1355 ,3169,4295000.0,2 ,Noida Extensions
754,3.0,Ready to move,1355 ,3317,4495000.0,2 ,Noida Extensions
755,3.0,Ready to move,1350 ,3037,4100000.0,2 ,Noida Extensions
756,2.0,Ready to move,1010 ,3118,3150000.0,2 ,Noida Extensions
757,4.0,Ready to move,1755 ,3017,5295000.0,3 ,Noida Extensions
758,3.0,Ready to move,1410 ,3294,4645000.0,2 ,Noida Extensions
759,3.0,Ready to move,1425 ,3224,4595000.0,2 ,Noida Extensions
760,2.0,Ready to move,995 ,3310,3294000.0,2 ,Noida Extensions
761,3.0,Ready to move,1355 ,3540,4797000.0,2 ,Noida Extensions
762,3.0,Ready to move,1410 ,3187,4494000.0,2 ,Noida Extensions
763,2.0,Ready to move,995 ,3312,3296000.0,2 ,Noida Extensions
764,2.0,Ready to move,975 ,3075,2999000.0,2 ,Noida Extensions
765,1.0,Under Construction,597 ,10094,6026000.0,,Sector 63
766,3.0,Ready to move,1835 ,9809,18000000.0,4 ,Sector 78
767,3.0,Ready to move,1645 ,8814,14500000.0,3 ,Sector 79
768,2.0,Ready to move,1310 ,7251,9500000.0,2 ,Sector 79
769,2.0,Under Construction,1155 ,7445,8600000.0,2 ,Sector 150
770,2.0,Ready to move,1291 ,12006,15400000.0,1 ,rho 2
771,4.0,Ready to move,3350 ,19402,65000000.0,5 ,Sector 50
772,4.0,Under Construction,3200 ,6250,20000000.0,5 ,Sector 152
773,4.0,Ready to move,2955 ,13874,41000000.0,5 ,Sector 137
774,4.0,Ready to move,4100 ,13780,56500000.0,5 ,Sector 92
775,4.0,Ready to move,3501 ,19137,67000000.0,5 ,Sector 107
776,4.0,Ready to move,4000 ,13075,52300000.0,5 ,Sector 108
777,4.0,Ready to move,4000 ,13125,52500000.0,5 ,Sector 108
778,2.0,Under Construction,1037 ,10414,10800000.0,2 ,Sector 150
779,4.0,Under Construction,3300 ,16666,55000000.0,4 ,Sector 94
780,3.0,Under Construction,1850 ,8918,16500000.0,3 ,Sector 152
781,3.0,Under Construction,1700 ,9000,15300000.0,3 ,Sector 150
782,4.0,Under Construction,3300 ,16666,55000000.0,4 ,Sector 94
783,2.0,Under Construction,1037 ,10414,10800000.0,2 ,Sector 150
784,4.0,Ready to move,4270 ,7850,33500000.0,4 ,Sector 74
785,3.0,Ready to move,2685 ,7850,21000000.0,3 ,Sector 74
786,3.0,Ready to move,2223 ,7850,17400000.0,2 ,Sector 74
787,3.0,Ready to move,2625 ,7850,20600000.0,,Sector 74
788,3.0,Ready to move,2560 ,7850,20000000.0,3 ,Sector 74
789,3.0,Ready to move,2370 ,7850,18600000.0,,Sector 74
790,4.0,Ready to move,4210 ,7850,33000000.0,4 ,Sector 74
791,3.0,Ready to move,2520 ,7850,19700000.0,4 ,Sector 74
792,2.0,Ready to move,1053 ,13784,14500000.0,2 ,Sector 43
793,2.0,Under Construction,1255 ,15139,19000000.0,2 ,Sector 43
794,2.0,Ready to move,1055 ,3079,3248000.0,,Noida Extensions
795,4.0,Ready to move,1755 ,3017,5294000.0,,Noida Extensions
796,3.0,Ready to move,1355 ,3169,4293000.0,,Noida Extensions
797,3.0,Ready to move,1410 ,3187,4493000.0,,Noida Extensions
798,3.0,Ready to move,1425 ,3224,4594000.0,,Noida Extensions
799,2.0,Ready to move,1015 ,3049,3094000.0,,Noida Extensions
800,2.0,Ready to move,995 ,3111,3095000.0,,Noida Extensions
801,4.0,Ready to move,4482 ,18500,82900000.0,,Sector 107
802,5.0,Ready to move,6570 ,18500,121500000.0,,Sector 107
803,2.0,Ready to move,995 ,3312,3296000.0,2 ,Noida Extensions
804,2.0,Ready to move,1055 ,3218,3395000.0,2 ,Noida Extensions
805,3.0,Ready to move,1375 ,3269,4495000.0,2 ,Noida Extensions
806,2.0,Ready to move,995 ,3311,3295000.0,2 ,Noida Extensions
807,2.0,Ready to move,1055 ,3218,3395000.0,2 ,Noida Extensions
808,2.0,Ready to move,1055 ,3217,3394000.0,2 ,Noida Extensions
809,2.0,Ready to move,995 ,3310,3294000.0,2 ,Noida Extensions
810,3.0,Ready to move,1410 ,3187,4495000.0,3 ,Noida Extensions
811,3.0,Ready to move,1410 ,3187,4494000.0,3 ,Noida Extensions
812,3.0,Ready to move,1355 ,3317,4495000.0,3 ,Noida Extensions
813,3.0,Ready to move,1425 ,3225,4596000.0,3 ,Noida Extensions
814,2.0,Ready to move,1015 ,3246,3295000.0,2 ,Noida Extensions
815,2.0,Ready to move,1015 ,3246,3295000.0,2 ,Noida Extensions
816,3.0,Ready to move,1425 ,3224,4595000.0,3 ,Noida Extensions
817,3.0,Ready to move,1355 ,3317,4495000.0,3 ,Noida Extensions
818,,New,1030 ,23522,24200000.0,,Yeida
819,3.0,Ready to move,1580 ,2847,4499000.0,,Noida Extensions
820,2.0,Ready to move,1050 ,3046,3199000.0,,Noida Extensions
821,3.0,Ready to move,1450 ,2895,4199000.0,,Noida Extensions
822,4.0,Ready to move,4875 ,14769,72000000.0,5 ,Sector 104
823,4.0,Ready to move,2535 ,12781,32400000.0,5 ,Sector 93A
824,3.0,Under Construction,1549 ,8457,13000000.0,,Noida Extensions
825,4.0,Under Construction,2038 ,8391,17100000.0,,Noida Extensions
826,3.0,Ready to move,1750 ,2542,4448000.0,,Noida Extensions
827,2.0,Ready to move,1010 ,2821,2849000.0,,Noida Extensions
828,3.0,Ready to move,1500 ,2766,4149000.0,,Noida Extensions
829,6.0,Ready to move,3750 ,8933,33500000.0,6 ,Sector 19
830,5.0,Ready to move,4000 ,12125,48500000.0,6 ,Sector 50
831,9.0,Ready to move,7500 ,8000,60000000.0,9 ,Sector 36
832,5.0,Ready to move,3500 ,10771,37700000.0,5 ,Sector 33
833,5.0,Ready to move,3500 ,10285,36000000.0,5 ,Sector 53
834,4.0,Ready to move,2800 ,16428,46000000.0,5 ,Sector 93A
835,5.0,Ready to move,2800 ,11607,32500000.0,5 ,Sector 47
836,7.0,Ready to move,8000 ,8125,65000000.0,7 ,Sector 34
837,6.0,Ready to move,4000 ,14375,57500000.0,6 ,Sector 39
838,5.0,Ready to move,3900 ,11538,45000000.0,4 ,Sector 61
839,6.0,Ready to move,5000 ,9000,45000000.0,6 ,Sector 48
840,4.0,Ready to move,6000 ,11500,69000000.0,5 ,Sector 150
841,3.0,Ready to move,1500 ,14666,22000000.0,3 ,Sector 93A
842,3.0,Ready to move,1270 ,7874,10000000.0,3 ,Sector 137
843,,Resale,200 ,205000,41000000.0,,Sector 48
844,,Resale,162 ,200617,32500000.0,,Sector 122
845,,Resale,162 ,293209,47500000.0,,Sector 46
846,,Resale,200 ,195000,39000000.0,,Sector 48
847,3.0,Ready to move,1505 ,7973,12000000.0,3 ,Sector 74
848,3.0,Under Construction,1275 ,3329,4245000.0,2 ,Sector 73
849,4.0,Under Construction,1825 ,3027,5525000.0,3 ,Sector 73
850,2.0,Under Construction,1050 ,3191,3351000.0,2 ,Sector 73
851,2.0,Under Construction,900 ,3321,2989000.0,2 ,Sector 73
852,3.0,Under Construction,1450 ,2895,4199000.0,2 ,Sector 73
853,4.0,Under Construction,1800 ,3238,5829000.0,4 ,Sector 73
854,4.0,Ready to move,2535 ,12820,32500000.0,4 ,Sector 93A
855,4.0,Ready to move,2800 ,15178,42500000.0,5 ,Sector 78
856,3.0,Ready to move,1375 ,3269,4494000.0,,Noida Extensions
857,2.0,Ready to move,1055 ,3079,3248000.0,,Noida Extensions
858,4.0,Ready to move,1755 ,3017,5294000.0,,Noida Extensions
859,3.0,Ready to move,1355 ,3169,4293000.0,,Noida Extensions
860,3.0,Ready to move,1410 ,3187,4493000.0,,Noida Extensions
861,3.0,Ready to move,1425 ,3224,4594000.0,,Noida Extensions
862,2.0,Ready to move,1015 ,3049,3094000.0,,Noida Extensions
863,2.0,Ready to move,995 ,3111,3095000.0,,Noida Extensions
864,2.0,Ready to move,1230 ,12195,15000000.0,2 ,Sector 74
865,1.0,Under Construction,600 ,3000,1800000.0,,Noida Extensions
866,3.0,Under Construction,1450 ,2620,3800000.0,,Noida Extensions
867,2.0,Under Construction,985 ,2842,2800000.0,,Noida Extensions
868,4.0,Ready to move,4000 ,15500,62000000.0,5 ,Sector 93A
869,2.0,Ready to move,1050 ,2857,3000000.0,2 ,Noida Extensions
870,2.0,Ready to move,1050 ,3142,3300000.0,2 ,Noida Extensions
871,3.0,Ready to move,1450 ,3103,4500000.0,2 ,Noida Extensions
872,2.0,Ready to move,1050 ,3119,3275000.0,2 ,Noida Extensions
873,2.0,Ready to move,1050 ,3095,3250000.0,2 ,Noida Extensions
874,2.0,Ready to move,1050 ,3119,3275000.0,2 ,Noida Extensions
875,2.0,Ready to move,1050 ,3119,3275000.0,2 ,Noida Extensions
876,2.0,Ready to move,1050 ,3142,3300000.0,2 ,Noida Extensions
877,2.0,Ready to move,1050 ,3095,3250000.0,2 ,Noida Extensions
878,3.0,Ready to move,1450 ,3137,4550000.0,2 ,Noida Extensions
879,3.0,Ready to move,1450 ,3103,4500000.0,2 ,Noida Extensions
880,2.0,Ready to move,1050 ,3142,3300000.0,2 ,Noida Extensions
881,2.0,Ready to move,1050 ,3095,3250000.0,2 ,Noida Extensions
882,2.0,Ready to move,1050 ,3047,3200000.0,2 ,Noida Extensions
883,2.0,Ready to move,1050 ,2952,3100000.0,2 ,Noida Extensions
884,2.0,Ready to move,1050 ,2761,2900000.0,2 ,Noida Extensions
885,3.0,Ready to move,1320 ,9204,12100000.0,2 ,Sector 78
886,3.0,Ready to move,1550 ,2645,4100000.0,,Noida Extensions
887,3.0,Ready to move,1400 ,2571,3600000.0,,Noida Extensions
888,3.0,Ready to move,2150 ,17209,37000000.0,4 ,Sector 104
889,4.0,Ready to move,4100 ,13658,56000000.0,5 ,Sector 92
890,3.0,Ready to move,2190 ,15068,33000000.0,3 ,Sector 137
891,3.0,Ready to move,1495 ,11906,17800000.0,3 ,Sector 143
892,3.0,Ready to move,1270 ,8661,11000000.0,3 ,Sector 137
893,2.0,Ready to move,1075 ,6046,6500000.0,2 ,Sector 120
894,,Resale,350 ,471428,165000000.0,,Sector 44
895,,New,900 ,3277,2950000.0,,Sector 138
896,3.0,Ready to move,1356 ,11061,15000000.0,3 ,Sector 143
897,1.0,Ready to move,600 ,2578,1547000.0,1 ,Sector 49
898,4.0,Ready to move,3500 ,11142,39000000.0,5 ,Sector 137
899,4.0,Under Construction,4700 ,17021,80000000.0,5 ,Sector 144
900,4.0,Ready to move,2806 ,16215,45500000.0,4 ,Sector 93A
901,3.0,Ready to move,2500 ,14000,35000000.0,4 ,Sector 78
902,4.0,Ready to move,3500 ,11285,39500000.0,5 ,Sector 137
903,1.0,Ready to move,600 ,2333,1399000.0,1 ,Sector 89
904,2.0,Ready to move,800 ,2250,1800000.0,2 ,Sector 89
905,2.0,Ready to move,800 ,2375,1900000.0,2 ,Sector 89
906,1.0,Ready to move,600 ,2333,1400000.0,1 ,Sector 89
907,2.0,Ready to move,800 ,2249,1799000.0,2 ,Sector 89
908,2.0,Ready to move,800 ,2437,1950000.0,2 ,Sector 49
909,2.0,Ready to move,800 ,2312,1850000.0,2 ,Sector 49
910,2.0,Ready to move,1010 ,2871,2900000.0,2 ,Sector 49
911,1.0,Ready to move,600 ,2333,1400000.0,1 ,Sector 70
912,2.0,Ready to move,800 ,3062,2450000.0,2 ,Sector 49
913,2.0,Ready to move,800 ,2625,2100000.0,2 ,Sector 70
914,2.0,Ready to move,1050 ,2573,2702000.0,2 ,Sector 49
915,2.0,Ready to move,800 ,2624,2099000.0,2 ,Sector 70
916,2.0,Ready to move,800 ,3000,2400000.0,2 ,Sector 49
917,2.0,Ready to move,800 ,3000,2400000.0,2 ,Sector 70
918,1.0,Ready to move,600 ,2416,1450000.0,1 ,Sector 70
919,2.0,Ready to move,850 ,3058,2600000.0,2 ,Sector 49
920,2.0,Ready to move,800 ,3093,2475000.0,2 ,Sector 49
921,2.0,Ready to move,800 ,3000,2400000.0,2 ,Sector 70
922,1.0,Ready to move,600 ,2333,1400000.0,1 ,Sector 70
923,2.0,Ready to move,800 ,3062,2450000.0,2 ,Sector 49
924,2.0,Ready to move,800 ,2625,2100000.0,2 ,Sector 70
925,1.0,Ready to move,600 ,2416,1450000.0,1 ,Sector 70
926,2.0,Ready to move,1010 ,2871,2900000.0,2 ,Sector 49
927,1.0,Ready to move,600 ,3916,2350000.0,2 ,Sector 49
928,2.0,Ready to move,850 ,3058,2600000.0,2 ,Sector 49
929,2.0,Ready to move,800 ,3187,2550000.0,2 ,Sector 49
930,2.0,Ready to move,800 ,3000,2400000.0,2 ,Sector 49
931,3.0,Ready to move,1355 ,3428,4644000.0,,Noida Extensions
932,3.0,Ready to move,1355 ,3428,4644000.0,,Noida Extensions
933,4.0,Ready to move,2275 ,10109,23000000.0,4 ,Sector 137
934,2.0,Ready to move,1045 ,6220,6500000.0,2 ,Sector 137
935,2.0,Ready to move,1135 ,8722,9900000.0,2 ,Sector 77
936,3.0,Ready to move,1835 ,12534,23000000.0,3 ,Sector 137
937,2.0,Ready to move,1082 ,6931,7500000.0,2 ,Sector 137
938,2.0,Ready to move,890 ,7977,7100000.0,2 ,Sector 137
939,2.0,Ready to move,890 ,7808,6950000.0,2 ,Sector 137
940,3.0,Under Construction,2034 ,12900,26200000.0,,Sector 117
941,4.0,Under Construction,3987 ,12900,51400000.0,,Sector 117
942,4.0,Under Construction,2799 ,12900,36100000.0,4 ,Sector 117
943,3.0,Under Construction,2304 ,12900,29700000.0,,Sector 117
944,4.0,Under Construction,3294 ,12900,42400000.0,,Sector 117
945,5.0,Under Construction,6939 ,12900,89500000.0,,Sector 117
946,4.0,Under Construction,4707 ,12900,60700000.0,,Sector 117
947,4.0,Under Construction,3294 ,12900,42400000.0,,Sector 117
948,3.0,Ready to move,1910 ,3699,7065000.0,,Phase 2 Noida Extension
949,3.0,Ready to move,1775 ,3699,6565000.0,3 ,Phase 2 Noida Extension
950,3.0,Ready to move,1690 ,11000,18500000.0,,Sector 150
951,3.0,Ready to move,1495 ,11000,16400000.0,,Sector 150
952,2.0,Ready to move,1245 ,11000,13600000.0,,Sector 150
953,3.0,Under Construction,1540 ,32741,50300000.0,,Sector 146
954,2.0,Under Construction,990 ,8000,7920000.0,,Noida Extensions
955,3.0,Under Construction,1545 ,7767,12000000.0,2 ,Noida Extensions
956,3.0,Under Construction,1350 ,7752,10400000.0,2 ,Noida Extensions
957,4.0,Under Construction,2010 ,7761,15500000.0,,Noida Extensions
958,4.0,Under Construction,4707 ,12900,60700000.0,,Sector 117
959,5.0,Under Construction,6939 ,12900,89500000.0,,Sector 117
960,3.0,Under Construction,2304 ,12900,29700000.0,,Sector 117
961,4.0,Under Construction,2799 ,12900,36100000.0,4 ,Sector 117
962,4.0,Under Construction,3987 ,12900,51400000.0,,Sector 117
963,3.0,Under Construction,2034 ,12900,26200000.0,,Sector 117
964,3.0,Under Construction,3270 ,18318,59800000.0,3 ,Sector 94
965,5.0,Under Construction,6220 ,19490,121200000.0,,Sector 94
966,5.0,Under Construction,5935 ,19490,115600000.0,,Sector 94
967,4.0,Under Construction,4315 ,19490,84000000.0,4 ,Sector 94
968,4.0,Under Construction,3650 ,11000,40100000.0,,Sector 150
969,3.0,Under Construction,2750 ,11000,30200000.0,,Sector 150
970,3.0,Under Construction,2450 ,11000,26900000.0,,Sector 150
971,3.0,Under Construction,2850 ,11000,31300000.0,,Sector 150
972,4.0,Under Construction,3300 ,13219,43600000.0,3 ,Sector 150
973,3.0,Under Construction,2350 ,13308,31200000.0,3 ,Sector 150
974,3.0,Under Construction,2555 ,13000,33200000.0,,Sector 150
975,4.0,Under Construction,6100 ,5147,31400000.0,,Sector 150
976,3.0,Under Construction,2040 ,13000,26500000.0,,Sector 150
977,4.0,Under Construction,3355 ,13000,43600000.0,,Sector 150
978,3.0,Under Construction,1700 ,12000,20400000.0,3 ,Sector 150
979,3.0,Under Construction,1380 ,8262,11400000.0,2 ,Noida Extensions
980,5.0,Under Construction,5935 ,19477,115600000.0,,Sector 94
981,4.0,Under Construction,4315 ,19304,83300000.0,4 ,Sector 94
982,3.0,Ready to move,1375 ,3269,4494000.0,,Noida Extensions
983,2.0,Ready to move,1055 ,3079,3248000.0,,Noida Extensions
984,4.0,Ready to move,1755 ,3017,5294000.0,,Noida Extensions
985,3.0,Ready to move,1355 ,3169,4293000.0,,Noida Extensions
986,3.0,Ready to move,1410 ,3187,4493000.0,,Noida Extensions
987,3.0,Ready to move,1425 ,3224,4594000.0,,Noida Extensions
988,2.0,Ready to move,1015 ,3049,3094000.0,,Noida Extensions
989,2.0,Ready to move,995 ,3111,3095000.0,,Noida Extensions
990,2.0,Under Construction,1050 ,3619,3800000.0,,Sector 73
991,3.0,Under Construction,1675 ,8571,14300000.0,,Sector 150
992,3.0,Under Construction,1615 ,8571,13800000.0,2 ,Sector 150
993,3.0,Under Construction,1400 ,8571,11900000.0,3 ,Sector 150
994,3.0,Under Construction,1380 ,8261,11400000.0,2 ,Noida Extensions
995,3.0,Under Construction,1549 ,8457,13000000.0,,Noida Extensions
996,4.0,Under Construction,2038 ,8391,17100000.0,,Noida Extensions
997,4.0,Under Construction,1821 ,24032,43700000.0,4 ,Sector 150
998,4.0,Under Construction,1819 ,39727,72200000.0,,Sector 150
999,4.0,Under Construction,1618 ,24032,38800000.0,4 ,Sector 150
1000,4.0,Under Construction,1927 ,24032,46300000.0,,Sector 150
1001,4.0,Under Construction,1615 ,38689,62400000.0,,Sector 150
1002,2.0,Under Construction,745 ,24032,17900000.0,,Sector 150
1003,3.0,Under Construction,1130 ,40556,45800000.0,,Sector 150
1004,3.0,Under Construction,1129 ,24032,27100000.0,3 ,Sector 150
1005,2.0,Under Construction,743 ,24032,17800000.0,,Sector 150
1006,3.0,Under Construction,2555 ,13000,33200000.0,,Sector 150
1007,4.0,Under Construction,6100 ,5147,31400000.0,,Sector 150
1008,3.0,Under Construction,2040 ,13000,26500000.0,,Sector 150
1009,4.0,Under Construction,3355 ,13000,43600000.0,,Sector 150
1010,3.0,Under Construction,1700 ,12000,20400000.0,3 ,Sector 150
1011,1.0,Under Construction,519 ,18504,9604000.0,,Sector 132
1012,1.0,Under Construction,879 ,18504,16200000.0,,Sector 132
1013,3.0,Under Construction,1540 ,32741,50300000.0,,Sector 146
1014,3.0,Under Construction,978 ,32753,32000000.0,,Sector 146
1015,2.0,Under Construction,831 ,32742,27200000.0,,Sector 146
1016,4.0,Under Construction,1714 ,32731,56100000.0,,Sector 146
1017,3.0,Under Construction,3270 ,19114,62500000.0,3 ,Sector 94
1018,5.0,Under Construction,5935 ,19477,115600000.0,,Sector 94
1019,4.0,Under Construction,4315 ,19304,83300000.0,4 ,Sector 94
1020,4.0,Under Construction,2164 ,24032,52000000.0,,Sector 150
1021,3.0,Under Construction,1227 ,40386,49500000.0,,Sector 150
1022,4.0,Under Construction,1927 ,24032,46300000.0,,Sector 150
1023,4.0,Under Construction,1615 ,38689,62400000.0,,Sector 150
1024,2.0,Under Construction,745 ,24032,17900000.0,,Sector 150
1025,3.0,Under Construction,1130 ,40556,45800000.0,,Sector 150
1026,3.0,Under Construction,1129 ,24032,27100000.0,3 ,Sector 150
1027,2.0,Under Construction,743 ,24032,17800000.0,,Sector 150
1028,3.0,Under Construction,2555 ,13000,33200000.0,,Sector 150
1029,4.0,Under Construction,6100 ,5147,31400000.0,,Sector 150
1030,3.0,Under Construction,2040 ,13000,26500000.0,,Sector 150
1031,4.0,Under Construction,3355 ,13000,43600000.0,,Sector 150
1032,3.0,Under Construction,1700 ,12000,20400000.0,3 ,Sector 150
1033,3.0,Under Construction,1675 ,8571,14300000.0,,Sector 150
1034,3.0,Under Construction,1615 ,8571,13800000.0,2 ,Sector 150
1035,3.0,Under Construction,1400 ,8571,11900000.0,3 ,Sector 150
1036,3.0,Under Construction,1625 ,12800,20800000.0,,Sector 150
1037,3.0,Under Construction,2300 ,12800,29400000.0,,Sector 150
1038,3.0,Ready to move,1155 ,12000,13800000.0,2 ,Sector 78
1039,2.0,Ready to move,1150 ,12000,13800000.0,,Sector 78
1040,3.0,Under Construction,1350 ,6290,8491000.0,2 ,Sector 107
1041,4.0,Under Construction,3235 ,6290,20300000.0,4 ,Sector 107
1042,3.0,Ready to move,1470 ,11000,16100000.0,,Sector 77
1043,2.0,Under Construction,1195 ,6290,7516000.0,2 ,Sector 107
1044,3.0,Ready to move,1765 ,11000,19400000.0,3 ,Sector 77
1045,3.0,Ready to move,1615 ,11000,17700000.0,,Sector 77
1046,2.0,Ready to move,1310 ,11000,14400000.0,2 ,Sector 77
1047,3.0,Under Construction,2125 ,6290,13300000.0,,Sector 107
1048,3.0,Ready to move,1400 ,11000,15400000.0,2 ,Sector 77
1049,4.0,Under Construction,2825 ,6290,17700000.0,5 ,Sector 107
1050,3.0,Ready to move,1505 ,8000,12000000.0,,Sector 74
1051,3.0,Ready to move,1900 ,12000,22800000.0,,Sector 78
1052,3.0,Ready to move,1650 ,12000,19800000.0,,Sector 78
1053,4.0,Ready to move,2385 ,8000,19000000.0,,Sector 74
1054,4.0,Ready to move,2303 ,12000,27600000.0,,Sector 78
1055,2.0,Ready to move,1082 ,8000,8656000.0,,Sector 74
1056,4.0,Ready to move,2295 ,12000,27500000.0,,Sector 78
1057,2.0,Ready to move,1250 ,12000,15000000.0,,Sector 78
1058,2.0,Ready to move,1090 ,12000,13000000.0,,Sector 78
1059,3.0,Ready to move,1625 ,8000,13000000.0,,Sector 74
1060,4.0,Ready to move,2385 ,8000,19000000.0,,Sector 74
1061,4.0,Ready to move,2303 ,12000,27600000.0,,Sector 78
1062,2.0,Ready to move,1082 ,8000,8656000.0,,Sector 74
1063,4.0,Ready to move,2295 ,12000,27500000.0,,Sector 78
1064,2.0,Ready to move,1250 ,12000,15000000.0,,Sector 78
1065,2.0,Ready to move,1090 ,12000,13000000.0,,Sector 78
1066,3.0,Ready to move,1625 ,8000,13000000.0,,Sector 74
1067,3.0,Ready to move,1500 ,12000,18000000.0,2 ,Sector 78
1068,3.0,Ready to move,1295 ,8000,10300000.0,,Sector 74
1069,2.0,Ready to move,1365 ,12000,16300000.0,2 ,Sector 78
1070,3.0,Ready to move,1340 ,12000,16000000.0,,Sector 78
1071,2.0,Ready to move,1150 ,8000,9200000.0,,Sector 74
1072,3.0,Ready to move,1345 ,12000,16100000.0,,Sector 78
1073,4.0,Ready to move,4115 ,9000,37000000.0,,Sector 76
1074,5.0,Ready to move,3260 ,12000,39100000.0,,Sector 78
1075,2.0,Ready to move,930 ,8000,7440000.0,,Sector 74
1076,2.0,Ready to move,1185 ,9000,10600000.0,2 ,Sector 76
1077,4.0,Ready to move,1990 ,12000,23800000.0,,Sector 78
1078,5.0,Ready to move,2975 ,12000,35700000.0,,Sector 78
1079,3.0,Ready to move,1945 ,8000,15500000.0,,Sector 74
1080,3.0,Ready to move,1200 ,12000,14400000.0,2 ,Sector 78
1081,4.0,Ready to move,3620 ,9000,32500000.0,,Sector 76
1082,4.0,Ready to move,3280 ,12000,39300000.0,,Sector 78
1083,2.0,Ready to move,1180 ,9000,10600000.0,,Sector 76
1084,3.0,Ready to move,3080 ,9000,27700000.0,,Sector 76
1085,5.0,Ready to move,4075 ,12000,48900000.0,,Sector 78
1086,3.0,Ready to move,1775 ,9000,15900000.0,,Sector 76
1087,2.0,Ready to move,1035 ,9000,9315000.0,,Sector 76
1088,4.0,Ready to move,2410 ,9000,21600000.0,,Sector 76
1089,3.0,Ready to move,1335 ,12000,16000000.0,,Sector 78
1090,2.0,Ready to move,2000 ,9000,18000000.0,,Sector 76
1091,4.0,Ready to move,3200 ,12000,38400000.0,,Sector 78
1092,2.0,Ready to move,950 ,9000,8550000.0,,Sector 76
1093,2.0,Ready to move,1042 ,12000,12500000.0,2 ,Sector 78
1094,3.0,Ready to move,3900 ,9000,35100000.0,,Sector 76
1095,4.0,Ready to move,2925 ,12000,35100000.0,,Sector 78
1096,3.0,Ready to move,1475 ,9000,13200000.0,,Sector 76
1097,3.0,Ready to move,1325 ,9000,11900000.0,,Sector 76
1098,1.0,Ready to move,815 ,9000,7335000.0,,Sector 76
1099,4.0,Ready to move,3545 ,9000,31900000.0,,Sector 76
1100,2.0,Ready to move,1335 ,9000,12000000.0,,Sector 76
1101,2.0,Ready to move,1015 ,9000,9135000.0,1 ,Sector 76
1102,3.0,Ready to move,1545 ,9000,13900000.0,,Sector 76
1103,5.0,Ready to move,3700 ,12000,44400000.0,,Sector 78
1104,2.0,Ready to move,1075 ,9000,9675000.0,,Sector 76
1105,2.0,Ready to move,1290 ,12000,15400000.0,,Sector 78
1106,3.0,Ready to move,1950 ,12000,23400000.0,3 ,Sector 78
1107,4.0,Ready to move,2166 ,12000,25900000.0,,Sector 78
1108,3.0,Ready to move,1690 ,12000,20200000.0,,Sector 78
1109,5.0,Ready to move,4000 ,12000,48000000.0,,Sector 78
1110,4.0,Ready to move,2950 ,12000,35400000.0,,Sector 78
1111,4.0,Ready to move,1970 ,12000,23600000.0,,Sector 78
1112,3.0,Ready to move,1825 ,12000,21900000.0,,Sector 78
1113,4.0,Ready to move,1835 ,12000,22000000.0,,Sector 78
1114,4.0,Ready to move,2870 ,12000,34400000.0,,Sector 78
1115,4.0,Ready to move,2600 ,12000,31200000.0,4 ,Sector 78
1116,3.0,Ready to move,2345 ,12000,28100000.0,,Sector 78
1117,3.0,Ready to move,1535 ,12000,18400000.0,,Sector 78
1118,3.0,Ready to move,1550 ,12000,18600000.0,,Sector 78
1119,3.0,Under Construction,1575 ,6290,9906000.0,2 ,Sector 107
1120,4.0,Ready to move,1835 ,12000,22000000.0,,Sector 78
1121,4.0,Ready to move,2870 ,12000,34400000.0,,Sector 78
1122,4.0,Ready to move,2600 ,12000,31200000.0,4 ,Sector 78
1123,3.0,Ready to move,2345 ,12000,28100000.0,,Sector 78
1124,3.0,Ready to move,1535 ,12000,18400000.0,,Sector 78
1125,3.0,Ready to move,1550 ,12000,18600000.0,,Sector 78
1126,3.0,Under Construction,1575 ,6290,9906000.0,2 ,Sector 107
1127,5.0,Ready to move,4900 ,12000,58800000.0,,Sector 78
1128,4.0,Under Construction,3530 ,16997,60000000.0,,Sector 45
1129,3.0,Under Construction,2975 ,16672,49600000.0,,Sector 45
1130,4.0,Under Construction,3530 ,16997,60000000.0,,Sector 45
1131,3.0,Under Construction,2975 ,16672,49600000.0,,Sector 45
1132,1.0,Ready to move,510 ,8990,4584000.0,,Sector 16B
1133,1.0,Ready to move,664 ,8990,5969000.0,,Sector 16B
1134,3.0,Ready to move,1755 ,3950,6932000.0,,Noida Extensions
1135,2.0,Under Construction,990 ,8000,7920000.0,,Noida Extensions
1136,2.0,Under Construction,990 ,8000,7920000.0,,Noida Extensions
1137,2.0,Under Construction,792 ,6637,5256000.0,,Noida Extensions
1138,2.0,Under Construction,792 ,6637,5256000.0,,Noida Extensions
1139,2.0,Under Construction,990 ,8000,7920000.0,,Noida Extensions
1140,2.0,Under Construction,990 ,8000,7920000.0,,Noida Extensions
1141,2.0,Under Construction,792 ,6637,5256000.0,,Noida Extensions
1142,2.0,Under Construction,792 ,6637,5256000.0,,Noida Extensions
1143,3.0,Under Construction,1580 ,8000,12600000.0,,Phase 2 Noida Extension
1144,3.0,Under Construction,1580 ,8000,12600000.0,,Phase 2 Noida Extension
1145,4.0,Under Construction,2450 ,8000,19600000.0,,Phase 2 Noida Extension
1146,4.0,Under Construction,2450 ,8000,19600000.0,,Phase 2 Noida Extension
1147,3.0,Under Construction,1895 ,8000,15100000.0,,Phase 2 Noida Extension
1148,3.0,Under Construction,1895 ,8000,15100000.0,,Phase 2 Noida Extension
1149,3.0,Under Construction,1355 ,8000,10800000.0,,Phase 2 Noida Extension
1150,3.0,Under Construction,1355 ,8000,10800000.0,,Phase 2 Noida Extension
1151,3.0,Under Construction,1600 ,8000,12800000.0,,Phase 2 Noida Extension
1152,3.0,Under Construction,1600 ,8000,12800000.0,,Phase 2 Noida Extension
1153,3.0,Under Construction,1380 ,8262,11400000.0,2 ,Noida Extensions
1154,3.0,Under Construction,1380 ,8262,11400000.0,2 ,Noida Extensions
1155,3.0,Under Construction,1549 ,8458,13100000.0,,Noida Extensions
1156,3.0,Under Construction,1549 ,8458,13100000.0,,Noida Extensions
1157,4.0,Under Construction,2038 ,8392,17100000.0,,Noida Extensions
1158,4.0,Under Construction,2038 ,8392,17100000.0,,Noida Extensions
1159,3.0,Under Construction,1549 ,8000,12300000.0,3 ,Sector 150
1160,4.0,Under Construction,2450 ,8000,19600000.0,,Phase 2 Noida Extension
1161,4.0,Under Construction,2450 ,8000,19600000.0,,Phase 2 Noida Extension
1162,3.0,Under Construction,1895 ,8000,15100000.0,,Phase 2 Noida Extension
1163,3.0,Under Construction,1895 ,8000,15100000.0,,Phase 2 Noida Extension
1164,3.0,Under Construction,1355 ,8000,10800000.0,,Phase 2 Noida Extension
1165,3.0,Under Construction,1355 ,8000,10800000.0,,Phase 2 Noida Extension
1166,3.0,Under Construction,1600 ,8000,12800000.0,,Phase 2 Noida Extension
1167,3.0,Under Construction,1600 ,8000,12800000.0,,Phase 2 Noida Extension
1168,3.0,Under Construction,1380 ,8262,11400000.0,2 ,Noida Extensions
1169,3.0,Under Construction,1380 ,8262,11400000.0,2 ,Noida Extensions
1170,3.0,Under Construction,1549 ,8458,13100000.0,,Noida Extensions
1171,3.0,Under Construction,1549 ,8458,13100000.0,,Noida Extensions
1172,4.0,Under Construction,2038 ,8392,17100000.0,,Noida Extensions
1173,4.0,Under Construction,2038 ,8392,17100000.0,,Noida Extensions
1174,3.0,Ready to move,1750 ,13999,24400000.0,,Sector 150
1175,4.0,Ready to move,3220 ,13999,45000000.0,,Sector 150
1176,3.0,Ready to move,2190 ,13999,30600000.0,,Sector 150
1177,3.0,Ready to move,2460 ,13999,34400000.0,,Sector 150
1178,2.0,Under Construction,1262 ,8000,10000000.0,2 ,Sector 150
1179,4.0,Under Construction,3027 ,8000,24200000.0,4 ,Sector 150
1180,1.0,Under Construction,1037 ,12000,12400000.0,,Sector 150
1181,3.0,Ready to move,1750 ,13999,24400000.0,,Sector 150
1182,4.0,Ready to move,3220 ,13999,45000000.0,,Sector 150
1183,3.0,Ready to move,2190 ,13999,30600000.0,,Sector 150
1184,3.0,Ready to move,2460 ,13999,34400000.0,,Sector 150
1185,3.0,Ready to move,1295 ,8339,10800000.0,2 ,Sector 137
1186,,Ready to move,440 ,7500,3300000.0,1 ,Sector 137
1187,,Ready to move,440 ,7613,3350000.0,1 ,Sector 137
1188,2.0,Ready to move,1082 ,7532,8150000.0,2 ,Sector 137
1189,2.0,Ready to move,1082 ,7301,7900000.0,2 ,Sector 137
1190,2.0,Ready to move,1082 ,7255,7850000.0,2 ,Sector 137
1191,3.0,Under Construction,1580 ,8000,12600000.0,,Phase 2 Noida Extension
1192,3.0,Under Construction,1580 ,8000,12600000.0,,Phase 2 Noida Extension
1193,4.0,Under Construction,2450 ,8000,19600000.0,,Phase 2 Noida Extension
1194,4.0,Under Construction,2450 ,8000,19600000.0,,Phase 2 Noida Extension
1195,3.0,Under Construction,1895 ,8000,15100000.0,,Phase 2 Noida Extension
1196,3.0,Under Construction,1895 ,8000,15100000.0,,Phase 2 Noida Extension
1197,3.0,Under Construction,1355 ,8000,10800000.0,,Phase 2 Noida Extension
1198,3.0,Under Construction,1355 ,8000,10800000.0,,Phase 2 Noida Extension
1199,3.0,Under Construction,1600 ,8000,12800000.0,,Phase 2 Noida Extension
1200,3.0,Under Construction,1600 ,8000,12800000.0,,Phase 2 Noida Extension
1201,3.0,Under Construction,1580 ,8000,12600000.0,,Phase 2 Noida Extension
1202,4.0,Under Construction,2450 ,8000,19600000.0,,Phase 2 Noida Extension
1203,3.0,Under Construction,1895 ,8000,15100000.0,,Phase 2 Noida Extension
1204,3.0,Under Construction,1355 ,8000,10800000.0,,Phase 2 Noida Extension
1205,3.0,Under Construction,1600 ,8000,12800000.0,,Phase 2 Noida Extension
1206,2.0,Ready to move,1085 ,12903,14000000.0,2 ,Sector 150
1207,3.0,Under Construction,1900 ,12210,23200000.0,,Sector 143B
1208,4.0,Under Construction,3131 ,16000,50000000.0,,Sector 43
1209,2.0,Under Construction,1111 ,13770,15200000.0,,Sector 43
1210,3.0,Under Construction,2088 ,13770,28700000.0,3 ,Sector 43
1211,4.0,Under Construction,2259 ,13770,31100000.0,,Sector 43
1212,3.0,Under Construction,2563 ,16000,41000000.0,3 ,Sector 43
1213,2.0,Under Construction,1053 ,13770,14400000.0,,Sector 43
1214,3.0,Under Construction,1614 ,13770,22200000.0,,Sector 43
1215,4.0,Under Construction,3360 ,16000,53700000.0,4 ,Sector 43
1216,5.0,Under Construction,3760 ,16000,60100000.0,5 ,Sector 43
1217,3.0,Under Construction,1525 ,13770,20900000.0,,Sector 43
1218,2.0,Under Construction,1255 ,13770,17200000.0,2 ,Sector 43
1219,2.0,Under Construction,990 ,8000,7920000.0,,Noida Extensions
1220,2.0,Under Construction,792 ,6637,5256000.0,,Noida Extensions
1221,3.0,Under Construction,1540 ,32741,50300000.0,,Sector 146
1222,3.0,Under Construction,978 ,32753,32000000.0,,Sector 146
1223,2.0,Under Construction,831 ,32742,27200000.0,,Sector 146
1224,4.0,Under Construction,1714 ,32731,56100000.0,,Sector 146
1225,4.0,Under Construction,3131 ,16000,50000000.0,,Sector 43
1226,3.0,Under Construction,2088 ,13770,28700000.0,3 ,Sector 43
1227,4.0,Under Construction,2259 ,13770,31100000.0,,Sector 43
1228,3.0,Under Construction,2563 ,16000,41000000.0,3 ,Sector 43
1229,3.0,Under Construction,1614 ,13770,22200000.0,,Sector 43
1230,4.0,Under Construction,3360 ,16000,53700000.0,4 ,Sector 43
1231,5.0,Under Construction,3760 ,16000,60100000.0,5 ,Sector 43
1232,3.0,Under Construction,1525 ,13770,20900000.0,,Sector 43
1233,2.0,Under Construction,1255 ,13770,17200000.0,2 ,Sector 43
1234,1.0,Under Construction,381 ,21045,7997000.0,,Sector 72
1235,1.0,Under Construction,506 ,21018,10600000.0,,Sector 72
1236,2.0,Ready to move,1085 ,9216,10000000.0,2 ,Sector 150
1237,,Under Construction,800 ,7499,5999000.0,1 ,Sector 140A
1238,,Under Construction,650 ,7299,4744000.0,1 ,Sector 140A
1239,2.0,Ready to move,1235 ,8750,10800000.0,2 ,Sector 77
1240,10.0,Ready to move,4305 ,32520,140000000.0,9 ,Sector 40
1241,7.0,Ready to move,3229 ,23227,75000000.0,8 ,Sector 47
1242,5.0,Ready to move,4845 ,14654,71000000.0,7 ,Sector 71
1243,5.0,Ready to move,4845 ,14551,70500000.0,5 ,Sector 71
1244,4.0,Ready to move,3100 ,10483,32500000.0,6 ,Sector 93A
1245,8.0,Ready to move,5000 ,13000,65000000.0,6 ,Sector 50
1246,8.0,Ready to move,5000 ,7500,37500000.0,8 ,Sector 51
1247,8.0,Ready to move,10000 ,6050,60500000.0,8 ,Sector 34
1248,7.0,Ready to move,3000 ,18333,55000000.0,6 ,Sector 105
1249,9.0,Ready to move,9500 ,6526,62000000.0,7 ,Sector 66
1250,4.0,Ready to move,2223 ,6972,15500000.0,4 ,Sector 74
1251,3.0,Ready to move,2500 ,21000,52500000.0,3 ,Sector 19
1252,6.0,Ready to move,3500 ,6857,24000000.0,4 ,Sector 112
1253,3.0,Ready to move,2100 ,11428,24000000.0,3 ,Sector 94
1254,4.0,Ready to move,3200 ,12812,41000000.0,4 ,Sector 150
1255,10.0,Ready to move,8000 ,10500,84000000.0,9 ,Sector 51
1256,7.0,Ready to move,9000 ,10000,90000000.0,5 ,Sector 71
1257,4.0,Ready to move,2030 ,6172,12500000.0,3 ,Sector 78
1258,4.0,Ready to move,2190 ,6172,13500000.0,,Sector 78
1259,4.0,Ready to move,2050 ,6172,12600000.0,,Sector 78
1260,3.0,Ready to move,1420 ,9000,12700000.0,,Sector 76
1261,4.0,Ready to move,3620 ,9000,32500000.0,,Sector 76
1262,2.0,Ready to move,1180 ,9000,10600000.0,,Sector 76
1263,3.0,Ready to move,3800 ,9500,36100000.0,,Sector 77
1264,3.0,Ready to move,1971 ,9500,18700000.0,,Sector 77
1265,4.0,Ready to move,2569 ,9500,24400000.0,,Sector 77
1266,3.0,Ready to move,1726 ,9500,16300000.0,,Sector 77
1267,3.0,Ready to move,2276 ,9500,21600000.0,,Sector 77
1268,3.0,Ready to move,3080 ,9000,27700000.0,,Sector 76
1269,3.0,Ready to move,1775 ,9000,15900000.0,,Sector 76
1270,2.0,Ready to move,1035 ,9000,9315000.0,,Sector 76
1271,4.0,Ready to move,2410 ,9000,21600000.0,,Sector 76
1272,2.0,Ready to move,2000 ,9000,18000000.0,,Sector 76
1273,3.0,Ready to move,3900 ,9000,35100000.0,,Sector 76
1274,3.0,Ready to move,1475 ,9000,13200000.0,,Sector 76
1275,3.0,Ready to move,1325 ,9000,11900000.0,,Sector 76
1276,1.0,Ready to move,815 ,9000,7335000.0,,Sector 76
1277,4.0,Ready to move,3545 ,9000,31900000.0,,Sector 76
1278,2.0,Ready to move,1335 ,9000,12000000.0,,Sector 76
1279,2.0,Ready to move,1015 ,9000,9135000.0,1 ,Sector 76
1280,3.0,Ready to move,1325 ,9000,11900000.0,,Sector 76
1281,1.0,Ready to move,815 ,9000,7335000.0,,Sector 76
1282,4.0,Ready to move,3545 ,9000,31900000.0,,Sector 76
1283,2.0,Ready to move,1335 ,9000,12000000.0,,Sector 76
1284,2.0,Ready to move,1015 ,9000,9135000.0,1 ,Sector 76
1285,3.0,Ready to move,1545 ,9000,13900000.0,,Sector 76
1286,3.0,Ready to move,1930 ,8750,16800000.0,3 ,Sector 77
1287,3.0,Ready to move,2250 ,9990,22400000.0,,Sector 77
1288,3.0,Ready to move,1890 ,9990,18800000.0,,Sector 77
1289,5.0,Ready to move,3600 ,9990,35900000.0,,Sector 77
1290,2.0,Ready to move,1100 ,9990,10900000.0,2 ,Sector 77
1291,3.0,Ready to move,2270 ,9990,22600000.0,,Sector 77
1292,3.0,Ready to move,2750 ,9990,27400000.0,,Sector 77
1293,3.0,Ready to move,1480 ,9990,14700000.0,,Sector 77
1294,4.0,Ready to move,2450 ,9990,24400000.0,,Sector 77
1295,4.0,Ready to move,2760 ,9990,27500000.0,,Sector 77
1296,3.0,Ready to move,2730 ,9990,27200000.0,,Sector 77
1297,3.0,Ready to move,2200 ,9990,21900000.0,,Sector 77
1298,3.0,Ready to move,1470 ,7200,10500000.0,,Sector 77
1299,3.0,Ready to move,1330 ,9990,13200000.0,,Sector 77
1300,2.0,Ready to move,1320 ,9990,13100000.0,,Sector 77
1301,3.0,Ready to move,1950 ,9990,19400000.0,,Sector 77
1302,2.0,Ready to move,1430 ,9990,14200000.0,,Sector 77
1303,2.0,Ready to move,1285 ,9990,12800000.0,,Sector 77
1304,2.0,Ready to move,1150 ,9990,11400000.0,2 ,Sector 77
1305,3.0,Ready to move,1790 ,9990,17800000.0,,Sector 77
1306,3.0,Ready to move,1395 ,9990,13900000.0,,Sector 77
1307,10.0,Ready to move,8000 ,10500,84000000.0,9 ,Sector 51
1308,7.0,Ready to move,9000 ,10000,90000000.0,5 ,Sector 71
1309,4.0,Ready to move,4400 ,17045,75000000.0,4 ,Sector 121
1310,10.0,Ready to move,4305 ,32520,140000000.0,9 ,Sector 40
1311,7.0,Ready to move,3229 ,23227,75000000.0,8 ,Sector 47
1312,5.0,Ready to move,4845 ,14654,71000000.0,7 ,Sector 71
1313,5.0,Ready to move,4845 ,14551,70500000.0,5 ,Sector 71
1314,4.0,Ready to move,3100 ,10483,32500000.0,6 ,Sector 93A
1315,8.0,Ready to move,5000 ,13000,65000000.0,6 ,Sector 50
1316,8.0,Ready to move,5000 ,7500,37500000.0,8 ,Sector 51
1317,8.0,Ready to move,10000 ,6050,60500000.0,8 ,Sector 34
1318,7.0,Ready to move,3000 ,18333,55000000.0,6 ,Sector 105
1319,9.0,Ready to move,9500 ,6526,62000000.0,7 ,Sector 66
1320,2.0,Ready to move,1430 ,9990,14200000.0,,Sector 77
1321,2.0,Ready to move,1285 ,9990,12800000.0,,Sector 77
1322,2.0,Ready to move,1150 ,9990,11400000.0,2 ,Sector 77
1323,3.0,Ready to move,1790 ,9990,17800000.0,,Sector 77
1324,3.0,Ready to move,1395 ,9990,13900000.0,,Sector 77
1325,4.0,Ready to move,4480 ,16964,76000000.0,4 ,Sector 107
1326,4.0,Ready to move,3750 ,11600,43500000.0,5 ,Sector 128
1327,2.0,Ready to move,1085 ,8755,9500000.0,2 ,Sector 168
1328,3.0,Ready to move,1560 ,5448,8500000.0,,Sector 137
1329,3.0,Under Construction,1404 ,5205,7309000.0,2 ,Sector 150
1330,2.0,Under Construction,1155 ,5254,6069000.0,2 ,Sector 150
1331,2.0,Under Construction,1137 ,5261,5982000.0,,Sector 150
1332,2.0,Ready to move,1850 ,11351,21000000.0,3 ,Sector 128
1333,3.0,Ready to move,2626 ,16184,42500000.0,4 ,Sector 128
1334,5.0,Under Construction,5250 ,12380,65000000.0,6 ,Sector 128
1335,3.0,Ready to move,2626 ,13328,35000000.0,4 ,Sector 128
1336,4.0,Ready to move,4250 ,20000,85000000.0,6 ,Sector 128
1337,3.0,Ready to move,2275 ,7560,17200000.0,4 ,Sector 168
1338,4.0,Under Construction,3200 ,13226,42300000.0,4 ,Sector 150
1339,3.0,Under Construction,2350 ,13308,31200000.0,3 ,Sector 150
1340,2.0,Ready to move,890 ,4696,4180000.0,2 ,Sector 137
1341,3.0,Ready to move,1295 ,4633,6000000.0,2 ,Sector 137
1342,,Ready to move,425 ,5176,2200000.0,1 ,Sector 137
1343,3.0,Ready to move,1295 ,4787,6200000.0,2 ,Sector 137
1344,2.0,Ready to move,890 ,4719,4200000.0,2 ,Sector 137
1345,2.0,Ready to move,1082 ,4713,5100000.0,2 ,Sector 137
1346,2.0,Ready to move,1180 ,6779,8000000.0,2 ,Sector 76
1347,3.0,Ready to move,1385 ,10108,14000000.0,2 ,Sector 77
1348,3.0,Under Construction,1521 ,15121,23000000.0,3 ,Sector 43
1349,3.0,Under Construction,1540 ,32741,50300000.0,,Sector 146
1350,3.0,Under Construction,978 ,32753,32000000.0,,Sector 146
1351,2.0,Under Construction,831 ,32742,27200000.0,,Sector 146
1352,4.0,Under Construction,1714 ,32731,56100000.0,,Sector 146
1353,4.0,Under Construction,2511 ,13000,32600000.0,4 ,Sector 75
1354,3.0,Under Construction,2124 ,13000,27600000.0,3 ,Sector 75
1355,3.0,Under Construction,1656 ,13000,21500000.0,2 ,Sector 75
1356,3.0,Under Construction,3270 ,19114,62500000.0,3 ,Sector 94
1357,5.0,Under Construction,5935 ,19477,115600000.0,,Sector 94
1358,4.0,Under Construction,4315 ,19304,83300000.0,4 ,Sector 94
1359,3.0,Ready to move,3302 ,12955,42700000.0,2 ,Sector 108
1360,4.0,Ready to move,3996 ,12955,51700000.0,3 ,Sector 108
1361,5.0,Ready to move,5350 ,16400,87700000.0,,Sector 128
1362,4.0,Under Construction,3550 ,14900,52800000.0,,Sector 107
1363,5.0,Ready to move,11000 ,16400,180400000.0,,Sector 128
1364,4.0,Ready to move,4874 ,12955,63100000.0,3 ,Sector 108
1365,4.0,Ready to move,3465 ,16400,56800000.0,4 ,Sector 128
1366,4.0,Ready to move,5200 ,16400,85200000.0,,Sector 128
1367,4.0,Ready to move,3325 ,16400,54500000.0,,Sector 128
1368,4.0,Ready to move,3715 ,16400,60900000.0,,Sector 128
1369,4.0,Ready to move,3575 ,16400,58600000.0,,Sector 128
1370,3.0,Ready to move,2700 ,16400,44200000.0,,Sector 128
1371,5.0,Ready to move,4200 ,16400,68800000.0,,Sector 128
1372,5.0,Ready to move,5250 ,16400,86100000.0,,Sector 128
1373,5.0,Ready to move,12500 ,16400,205000000.0,,Sector 128
1374,5.0,Ready to move,12000 ,16400,196800000.0,,Sector 128
1375,4.0,Ready to move,3775 ,16400,61900000.0,,Sector 128
1376,5.0,Ready to move,5300 ,16400,86900000.0,,Sector 128
1377,4.0,Under Construction,3000 ,14900,44700000.0,4 ,Sector 107
1378,5.0,Ready to move,4770 ,16400,78200000.0,,Sector 128
1379,4.0,Under Construction,3720 ,14900,55400000.0,,Sector 107
1380,4.0,Ready to move,5550 ,16400,91000000.0,,Sector 128
1381,3.0,Under Construction,2500 ,14900,37200000.0,3 ,Sector 107
1382,5.0,Ready to move,10000 ,16400,164000000.0,,Sector 128
1383,4.0,Under Construction,2970 ,14900,44200000.0,4 ,Sector 107
1384,3.0,Ready to move,2850 ,16400,46700000.0,3 ,Sector 128
1385,3.0,Under Construction,2575 ,14900,38300000.0,3 ,Sector 107
1386,3.0,Ready to move,2019 ,7700,15500000.0,,Sector 128
1387,4.0,Ready to move,4961 ,7700,38100000.0,,Sector 128
1388,3.0,Ready to move,1650 ,7700,12700000.0,3 ,Sector 128
1389,4.0,Ready to move,4160 ,7700,32000000.0,,Sector 128
1390,4.0,Ready to move,2676 ,7700,20600000.0,,Sector 128
1391,2.0,Ready to move,1240 ,7700,9548000.0,2 ,Sector 128
1392,3.0,Ready to move,2001 ,7700,15400000.0,,Sector 128
1393,4.0,Ready to move,3590 ,5750,20600000.0,3 ,Sector 168
1394,4.0,Ready to move,2700 ,5750,15500000.0,4 ,Sector 168
1395,3.0,Ready to move,1675 ,7700,12800000.0,3 ,Sector 128
1396,3.0,Ready to move,1750 ,5750,10000000.0,2 ,Sector 168
1397,3.0,Ready to move,1955 ,5250,10200000.0,,Sector 168
1398,3.0,Ready to move,2275 ,5750,13000000.0,3 ,Sector 168
1399,3.0,Ready to move,2100 ,5750,12000000.0,2 ,Sector 168
1400,4.0,Ready to move,3590 ,5750,20600000.0,3 ,Sector 168
1401,4.0,Ready to move,2700 ,5750,15500000.0,4 ,Sector 168
1402,3.0,Ready to move,1675 ,7700,12800000.0,3 ,Sector 128
1403,3.0,Ready to move,1750 ,5750,10000000.0,2 ,Sector 168
1404,3.0,Ready to move,1955 ,5250,10200000.0,,Sector 168
1405,3.0,Ready to move,2275 ,5750,13000000.0,3 ,Sector 168
1406,3.0,Ready to move,2100 ,5750,12000000.0,2 ,Sector 168
1407,3.0,Ready to move,2230 ,5750,12800000.0,3 ,Sector 168
1408,1.0,Ready to move,685 ,5800,3973000.0,1 ,Sector 168
1409,4.0,Ready to move,3500 ,5750,20100000.0,3 ,Sector 168
1410,3.0,Ready to move,2185 ,5750,12500000.0,3 ,Sector 168
1411,1.0,Ready to move,615 ,5800,3567000.0,1 ,Sector 168
1412,4.0,Ready to move,2740 ,5750,15700000.0,3 ,Sector 168
1413,4.0,Ready to move,3540 ,7700,27200000.0,,Sector 128
1414,3.0,Under Construction,3270 ,19114,62500000.0,3 ,Sector 94
1415,5.0,Under Construction,5935 ,19477,115600000.0,,Sector 94
1416,4.0,Under Construction,4315 ,19304,83300000.0,4 ,Sector 94
1417,4.0,Under Construction,3530 ,16997,60000000.0,,Sector 45
1418,3.0,Under Construction,2975 ,16672,49600000.0,,Sector 45
1419,3.0,Under Construction,1700 ,9000,15300000.0,,Sector 143B
1420,3.0,Ready to move,1912 ,7700,14700000.0,,Sector 128
1421,4.0,Ready to move,4140 ,7700,31800000.0,,Sector 128
1422,3.0,Ready to move,1967 ,7700,15100000.0,3 ,Sector 128
1423,3.0,Ready to move,2033 ,7700,15600000.0,,Sector 128
1424,4.0,Under Construction,1927 ,24032,46300000.0,,Sector 150
1425,4.0,Under Construction,1821 ,24032,43700000.0,4 ,Sector 150
1426,4.0,Under Construction,1819 ,39727,72200000.0,,Sector 150
1427,4.0,Under Construction,1618 ,24032,38800000.0,4 ,Sector 150
1428,3.0,Under Construction,1356 ,41294,55900000.0,,Sector 150
1429,4.0,Under Construction,1615 ,38689,62400000.0,,Sector 150
1430,3.0,Under Construction,1223 ,24032,29300000.0,,Sector 150
1431,3.0,Under Construction,1130 ,40556,45800000.0,,Sector 150
1432,3.0,Under Construction,1361 ,24032,32700000.0,,Sector 150
1433,4.0,Under Construction,2164 ,24032,52000000.0,,Sector 150
1434,3.0,Under Construction,1227 ,40386,49500000.0,,Sector 150
1435,3.0,Ready to move,1772 ,14108,25000000.0,3 ,Sector 121
1436,3.0,Ready to move,1455 ,6185,9000000.0,3 ,Sector 76
1437,4.0,Ready to move,2410 ,7468,18000000.0,4 ,Sector 76
1438,9.0,Ready to move,6500 ,10307,67000000.0,8 ,Sector 47
1439,2.0,Ready to move,925 ,6162,5700000.0,2 ,Sector 137
1440,2.0,Ready to move,825 ,6727,5550000.0,2 ,Sector 137
1441,3.0,Ready to move,1895 ,3947,7480000.0,3 ,Noida Extensions
1442,2.0,Ready to move,1010 ,3108,3140000.0,2 ,Noida Extensions
1443,1.0,Ready to move,680 ,2939,1999000.0,1 ,Noida Extensions
1444,3.0,Ready to move,1895 ,3949,7484000.0,3 ,Noida Extensions
1445,3.0,Ready to move,1895 ,3950,7485000.0,3 ,Noida Extensions
1446,3.0,Under Construction,1755 ,3960,6950000.0,3 ,Noida Extensions
1447,3.0,Ready to move,1755 ,3950,6932000.0,3 ,Noida Extensions
1448,3.0,Ready to move,1755 ,3931,6900000.0,3 ,Noida Extensions
1449,3.0,Under Construction,1380 ,8262,11400000.0,2 ,Noida Extensions
1450,3.0,Under Construction,1549 ,8458,13100000.0,,Noida Extensions
1451,4.0,Under Construction,2038 ,8392,17100000.0,,Noida Extensions
1452,4.0,Under Construction,3530 ,16997,60000000.0,,Sector 45
1453,3.0,Under Construction,2975 ,16672,49600000.0,,Sector 45
1454,3.0,Ready to move,1455 ,9656,14000000.0,2 ,Sector 76
1455,2.0,Ready to move,1380 ,11136,15300000.0,2 ,Sector 94
1456,4.0,Ready to move,3025 ,6611,20000000.0,3 ,Sector 119
1457,1.0,Under Construction,519 ,18504,9604000.0,,Sector 132
1458,1.0,Under Construction,879 ,18504,16200000.0,,Sector 132
1459,1.0,Ready to move,460 ,9304,4270000.0,,Sector 19 Yamuna Expressway
1460,2.0,Ready to move,930 ,7526,7000000.0,2 ,Sector 74
1461,3.0,Under Construction,1800 ,22000,39600000.0,3 ,Sector 43
1462,2.0,Under Construction,1048 ,25000,26200000.0,2 ,Sector 146
1463,2.0,Ready to move,1160 ,12931,15000000.0,2 ,Sector 144
1464,5.0,Under Construction,3200 ,12218,39100000.0,6 ,Sector 150
1465,3.0,Ready to move,1415 ,14134,20000000.0,3 ,Sector 107
1466,2.0,Under Construction,1245 ,10923,13600000.0,2 ,Sector 150
1467,3.0,Ready to move,2450 ,20897,51200000.0,4 ,Sector 108
1468,3.0,Ready to move,1827 ,14833,27100000.0,3 ,Sector 121
1469,3.0,Ready to move,1907 ,14997,28600000.0,3 ,Sector 150
1470,2.0,Under Construction,1255 ,14103,17700000.0,2 ,Sector 43
1471,3.0,Ready to move,1400 ,7142,10000000.0,3 ,Sector 129
1472,4.0,Under Construction,2253 ,16955,38200000.0,5 ,Sector 117
1473,3.0,Under Construction,2975 ,18000,53500000.0,3 ,Sector 45
1474,4.0,Under Construction,3000 ,26666,80000000.0,5 ,Sector 107
1475,4.0,Under Construction,3530 ,16997,60000000.0,,Sector 45
1476,3.0,Under Construction,2975 ,16672,49600000.0,,Sector 45
1477,2.0,Ready to move,750 ,2913,2185000.0,,Sector 75
1478,2.0,Ready to move,650 ,2746,1785000.0,,Sector 75
1479,3.0,Under Construction,1404 ,11405,16000000.0,1 ,Sector 150
1480,2.0,Under Construction,1155 ,10454,12000000.0,2 ,Sector 150
1481,2.0,Under Construction,1137 ,12840,14600000.0,,Sector 150
1482,3.0,Ready to move,1750 ,13999,24400000.0,,Sector 150
1483,4.0,Ready to move,3220 ,13999,45000000.0,,Sector 150
1484,3.0,Ready to move,2190 ,13999,30600000.0,,Sector 150
1485,3.0,Ready to move,2460 ,13999,34400000.0,,Sector 150
1486,3.0,Under Construction,2450 ,11000,26900000.0,,Sector 150
1487,3.0,Under Construction,2750 ,11000,30200000.0,,Sector 150
1488,3.0,Under Construction,3019 ,15000,45200000.0,,Sector 150
1489,3.0,Under Construction,2160 ,15000,32400000.0,3 ,Sector 150
1490,3.0,Under Construction,2493 ,15000,37300000.0,3 ,Sector 150
1491,3.0,Under Construction,2492 ,15000,37300000.0,,Sector 150
1492,2.0,Under Construction,1515 ,15000,22700000.0,,Sector 150
1493,3.0,Under Construction,2375 ,15000,35600000.0,3 ,Sector 150
1494,2.0,Under Construction,1480 ,15000,22200000.0,2 ,Sector 150
1495,2.0,Under Construction,1587 ,15000,23800000.0,2 ,Sector 150
1496,3.0,Under Construction,2857 ,15000,42800000.0,3 ,Sector 150
1497,4.0,Under Construction,3650 ,11000,40100000.0,,Sector 150
1498,3.0,Under Construction,2473 ,15000,37000000.0,3 ,Sector 150
1499,3.0,Under Construction,2850 ,11000,31300000.0,,Sector 150
1500,4.0,Ready to move,3220 ,13999,45000000.0,,Sector 150
1501,3.0,Ready to move,2190 ,13999,30600000.0,,Sector 150
1502,3.0,Ready to move,2460 ,13999,34400000.0,,Sector 150
1503,3.0,Ready to move,1580 ,2847,4499000.0,,Noida Extensions
1504,2.0,Ready to move,1050 ,3046,3199000.0,,Noida Extensions
1505,3.0,Ready to move,1450 ,2895,4199000.0,,Noida Extensions
1506,5.0,Ready to move,3800 ,12368,47000000.0,4 ,Sector 50
1507,2.0,Under Construction,1100 ,9363,10300000.0,2 ,Sector 150
1508,3.0,Ready to move,1360 ,9558,13000000.0,3 ,Sector 137
1509,4.0,Under Construction,3198 ,12000,38300000.0,4 ,Sector 150
1510,2.0,Under Construction,1969 ,12000,23600000.0,,Sector 150
1511,3.0,Under Construction,2440 ,12000,29200000.0,3 ,Sector 150
1512,3.0,Under Construction,1947 ,12000,23300000.0,3 ,Sector 150
1513,2.0,Under Construction,1625 ,12000,19500000.0,,Sector 150
1514,2.0,Under Construction,1262 ,12000,15100000.0,2 ,Sector 150
1515,1.0,Under Construction,1037 ,12000,12400000.0,,Sector 150
1516,,Resale,1377 ,20551,28300000.0,,Sector 133
1517,4.0,Under Construction,4315 ,18991,81900000.0,4 ,Sector 94
1518,3.0,Under Construction,3270 ,16868,55100000.0,3 ,Sector 94
1519,4.0,Under Construction,4500 ,7000,31500000.0,4 ,Sector 74
1520,4.0,Under Construction,1821 ,24032,43700000.0,4 ,Sector 150
1521,4.0,Under Construction,1819 ,39727,72200000.0,,Sector 150
1522,4.0,Under Construction,1618 ,24032,38800000.0,4 ,Sector 150
1523,3.0,Under Construction,1356 ,41294,55900000.0,,Sector 150
1524,3.0,Under Construction,1223 ,24032,29300000.0,,Sector 150
1525,3.0,Under Construction,1361 ,24032,32700000.0,,Sector 150
1526,2.0,Under Construction,893 ,24032,21400000.0,,Sector 150
1527,4.0,Under Construction,2164 ,24032,52000000.0,,Sector 150
1528,3.0,Under Construction,1227 ,40386,49500000.0,,Sector 150
1529,4.0,Under Construction,1927 ,24032,46300000.0,,Sector 150
1530,4.0,Under Construction,1615 ,38689,62400000.0,,Sector 150
1531,2.0,Under Construction,745 ,24032,17900000.0,,Sector 150
1532,3.0,Under Construction,1130 ,40556,45800000.0,,Sector 150
1533,3.0,Under Construction,1129 ,24032,27100000.0,3 ,Sector 150
1534,2.0,Under Construction,743 ,24032,17800000.0,,Sector 150
1535,4.0,Under Construction,3198 ,14982,47900000.0,,Sector 150
1536,3.0,Under Construction,3165 ,14983,47400000.0,,Sector 150
1537,3.0,Under Construction,2440 ,14983,36500000.0,,Sector 150
1538,3.0,Under Construction,1947 ,14982,29100000.0,,Sector 150
1539,4.0,Under Construction,3963 ,14982,59300000.0,,Sector 150
1540,2.0,Under Construction,1558 ,14983,23300000.0,,Sector 150
1541,2.0,Under Construction,1628 ,14983,24300000.0,,Sector 150
1542,3.0,Ready to move,1470 ,7200,10500000.0,,Sector 77
1543,3.0,Ready to move,1765 ,7200,12700000.0,3 ,Sector 77
1544,3.0,Ready to move,1615 ,7200,11600000.0,,Sector 77
1545,2.0,Ready to move,1310 ,7200,9432000.0,2 ,Sector 77
1546,3.0,Ready to move,1400 ,7200,10000000.0,2 ,Sector 77
1547,4.0,Ready to move,9000 ,14722,132500000.0,5 ,Sector 93A
1548,1.0,Ready to move,690 ,4492,3100000.0,1 ,Sector 22D Yamuna Expressway
1549,4.0,Ready to move,2600 ,11461,29800000.0,4 ,Sector 50
1550,2.0,Under Construction,1255 ,13770,17200000.0,2 ,Sector 43
1551,4.0,Under Construction,3131 ,13770,43100000.0,,Sector 43
1552,3.0,Under Construction,2088 ,13770,28700000.0,3 ,Sector 43
1553,4.0,Under Construction,2259 ,13770,31100000.0,,Sector 43
1554,3.0,Under Construction,2563 ,13770,35200000.0,3 ,Sector 43
1555,3.0,Under Construction,1614 ,13770,22200000.0,,Sector 43
1556,4.0,Under Construction,3360 ,13770,46200000.0,4 ,Sector 43
1557,5.0,Under Construction,3760 ,13770,51700000.0,5 ,Sector 43
1558,3.0,Under Construction,1525 ,13770,20900000.0,,Sector 43
1559,,New,1800 ,7222,13000000.0,,Sector 22D Yamuna Expressway
1560,,New,1800 ,7222,13000000.0,,Sector 22D Yamuna Expressway
1561,,New,900 ,7222,6500000.0,,Sector 22D Yamuna Expressway
1562,,New,900 ,7222,6500000.0,,Sector 22D Yamuna Expressway
1563,,New,1350 ,7222,9750000.0,,Sector 22D Yamuna Expressway
1564,,New,1350 ,7222,9750000.0,,Sector 22D Yamuna Expressway
1565,4.0,Ready to move,4482 ,18500,82900000.0,,Sector 107
1566,5.0,Ready to move,6570 ,18500,121500000.0,,Sector 107
1567,3.0,Under Construction,1675 ,4950,8291000.0,,Sector 150
1568,3.0,Under Construction,1615 ,4950,7994000.0,3 ,Sector 150
1569,3.0,Under Construction,1400 ,4950,6930000.0,3 ,Sector 150
1570,3.0,Under Construction,1580 ,8000,12600000.0,,Phase 2 Noida Extension
1571,4.0,Under Construction,2450 ,8000,19600000.0,,Phase 2 Noida Extension
1572,3.0,Under Construction,1895 ,8000,15100000.0,,Phase 2 Noida Extension
1573,3.0,Under Construction,1355 ,8000,10800000.0,,Phase 2 Noida Extension
1574,3.0,Under Construction,1600 ,8000,12800000.0,,Phase 2 Noida Extension
1575,3.0,Under Construction,3011 ,24882,74900000.0,3 ,Sector 128
1576,4.0,Under Construction,4145 ,24881,103100000.0,3 ,Sector 128
1577,4.0,Under Construction,4113 ,24881,102300000.0,3 ,Sector 128
1578,4.0,Under Construction,3905 ,24881,97100000.0,4 ,Sector 128
1579,3.0,Under Construction,3047 ,24882,75800000.0,3 ,Sector 128
1580,4.0,Under Construction,3938 ,24881,97900000.0,4 ,Sector 128
1581,4.0,Ready to move,3501 ,18500,64700000.0,3 ,Sector 107
1582,4.0,Ready to move,4482 ,18500,82900000.0,,Sector 107
1583,5.0,Ready to move,6570 ,18500,121500000.0,,Sector 107
1584,3.0,Under Construction,2555 ,13000,33200000.0,,Sector 150
1585,4.0,Under Construction,6100 ,5147,31400000.0,,Sector 150
1586,3.0,Under Construction,2040 ,13000,26500000.0,,Sector 150
1587,4.0,Under Construction,3355 ,13000,43600000.0,,Sector 150
1588,3.0,Under Construction,1700 ,12000,20400000.0,3 ,Sector 150
1589,5.0,Ready to move,6300 ,16500,103900000.0,,Sector 75
1590,4.0,Ready to move,3300 ,16500,54400000.0,,Sector 75
1591,4.0,Ready to move,3030 ,16500,49900000.0,,Sector 75
1592,3.0,Ready to move,2510 ,16500,41400000.0,,Sector 75
1593,5.0,Ready to move,5300 ,16500,87400000.0,,Sector 75
1594,3.0,Ready to move,2500 ,12000,30000000.0,,Sector 78
1595,4.0,Ready to move,3430 ,12000,41100000.0,,Sector 78
1596,4.0,Ready to move,4425 ,12000,53100000.0,,Sector 78
1597,3.0,Under Construction,2034 ,12900,26200000.0,,Sector 117
1598,4.0,Under Construction,3987 ,12900,51400000.0,,Sector 117
1599,3.0,Ready to move,2500 ,14010,35000000.0,,Sector 107
1600,3.0,Under Construction,2034 ,12900,26200000.0,,Sector 117
1601,4.0,Under Construction,3987 ,12900,51400000.0,,Sector 117
1602,3.0,Ready to move,2500 ,14010,35000000.0,,Sector 107
1603,4.0,Under Construction,2799 ,12900,36100000.0,4 ,Sector 117
1604,4.0,Ready to move,3300 ,14010,46200000.0,,Sector 107
1605,3.0,Under Construction,2304 ,12900,29700000.0,,Sector 117
1606,5.0,Ready to move,4300 ,14010,60200000.0,2 ,Sector 107
1607,3.0,Ready to move,2070 ,14010,29000000.0,,Sector 107
1608,4.0,Under Construction,3294 ,12900,42400000.0,,Sector 117
1609,5.0,Under Construction,6939 ,12900,89500000.0,,Sector 117
1610,4.0,Under Construction,4707 ,12900,60700000.0,,Sector 117
1611,4.0,Ready to move,3195 ,11925,38100000.0,4 ,Sector 121
1612,4.0,Ready to move,2448 ,11926,29100000.0,,Sector 121
1613,3.0,Ready to move,1350 ,11926,16100000.0,2 ,Sector 121
1614,3.0,Ready to move,1620 ,11926,19300000.0,,Sector 121
1615,4.0,Ready to move,4455 ,11925,53100000.0,5 ,Sector 121
1616,3.0,Ready to move,2070 ,11926,24600000.0,,Sector 121
1617,3.0,Ready to move,1827 ,11926,21700000.0,,Sector 121
1618,3.0,Under Construction,2034 ,12900,26200000.0,,Sector 117
1619,4.0,Under Construction,3987 ,12900,51400000.0,,Sector 117
1620,4.0,Under Construction,2799 ,12900,36100000.0,4 ,Sector 117
1621,3.0,Under Construction,2304 ,12900,29700000.0,,Sector 117
1622,4.0,Under Construction,3294 ,12900,42400000.0,,Sector 117
1623,5.0,Under Construction,6939 ,12900,89500000.0,,Sector 117
1624,3.0,Under Construction,2555 ,13000,33200000.0,,Sector 150
1625,4.0,Under Construction,4707 ,12900,60700000.0,,Sector 117
1626,4.0,Under Construction,6100 ,5147,31400000.0,,Sector 150
1627,3.0,Under Construction,2040 ,13000,26500000.0,,Sector 150
1628,3.0,Under Construction,1580 ,8000,12600000.0,,Phase 2 Noida Extension
1629,4.0,Under Construction,3355 ,13000,43600000.0,,Sector 150
1630,4.0,Under Construction,2450 ,8000,19600000.0,,Phase 2 Noida Extension
1631,4.0,Under Construction,3650 ,11000,40100000.0,,Sector 150
1632,3.0,Under Construction,1895 ,8000,15100000.0,,Phase 2 Noida Extension
1633,3.0,Under Construction,1700 ,12000,20400000.0,3 ,Sector 150
1634,3.0,Under Construction,2750 ,11000,30200000.0,,Sector 150
1635,3.0,Under Construction,1355 ,8000,10800000.0,,Phase 2 Noida Extension
1636,3.0,Under Construction,2450 ,11000,26900000.0,,Sector 150
1637,3.0,Under Construction,1600 ,8000,12800000.0,,Phase 2 Noida Extension
1638,3.0,Under Construction,2850 ,11000,31300000.0,,Sector 150
1639,4.0,Ready to move,3370 ,12000,40400000.0,3 ,Sector 78
1640,5.0,Ready to move,3775 ,12000,45300000.0,,Sector 78
1641,4.0,Under Construction,2511 ,13000,32600000.0,4 ,Sector 75
1642,3.0,Ready to move,3020 ,12000,36200000.0,,Sector 78
1643,3.0,Ready to move,3070 ,12000,36800000.0,,Sector 78
1644,4.0,Ready to move,3525 ,12000,42300000.0,,Sector 78
1645,2.0,Ready to move,950 ,4210,4000000.0,,Sector 49
1646,2.0,Ready to move,1050 ,4000,4200000.0,,Sector 49
1647,1.0,Ready to move,550 ,4545,2500000.0,,Sector 49
1648,2.0,Ready to move,950 ,3369,3200000.0,1 ,Sector 49
1649,3.0,Ready to move,1450 ,3587,5201000.0,2 ,Sector 49
1650,1.0,Ready to move,650 ,3077,2000000.0,1 ,Sector 49
1651,1.0,Ready to move,625 ,4320,2700000.0,,Sector 49
1652,2.0,Ready to move,905 ,4475,4049000.0,,Sector 49
1653,2.0,Ready to move,855 ,4502,3849000.0,,Sector 49
1654,1.0,Ready to move,545 ,3486,1899000.0,,Sector 49
1655,3.0,Under Construction,1750 ,6171,10800000.0,,Sector 150
1656,4.0,Under Construction,3220 ,7018,22600000.0,,Sector 150
1657,3.0,Under Construction,2190 ,6484,14200000.0,,Sector 150
1658,3.0,Under Construction,2460 ,7073,17400000.0,,Sector 150
1659,3.0,Ready to move,1425 ,9473,13500000.0,2 ,Sector 137
1660,3.0,Under Construction,1540 ,32741,50300000.0,,Sector 146
1661,2.0,Under Construction,831 ,32742,27200000.0,,Sector 146
1662,4.0,Under Construction,3200 ,13226,42300000.0,4 ,Sector 150
1663,3.0,Under Construction,2350 ,13308,31200000.0,3 ,Sector 150
1664,4.0,Under Construction,1714 ,32731,56100000.0,,Sector 146
1665,3.0,Under Construction,978 ,32753,32000000.0,,Sector 146
1666,,New,9072 ,500,4536000.0,,Sector 150
1667,3.0,Ready to move,1285 ,3968,5100000.0,3 ,Sector 137
1668,2.0,Ready to move,1070 ,3644,3900000.0,2 ,Sector 137
1669,3.0,Ready to move,1592 ,4020,6400000.0,2 ,Sector 137
1670,3.0,Ready to move,1695 ,4011,6800000.0,3 ,Sector 137
1671,3.0,Ready to move,1410 ,4042,5700000.0,2 ,Sector 137
1672,3.0,Ready to move,1950 ,4000,7800000.0,3 ,Sector 137
1673,3.0,Ready to move,1725 ,4000,6900000.0,3 ,Sector 137
1674,3.0,Ready to move,1845 ,3950,7287000.0,,Noida Extensions
1675,3.0,Ready to move,1755 ,3950,6932000.0,,Noida Extensions
1676,3.0,Under Construction,1248 ,26864,33500000.0,,Sector 43
1677,3.0,Under Construction,1248 ,26864,33500000.0,,Sector 43
1678,3.0,Under Construction,1345 ,27657,37200000.0,,Sector 43
1679,3.0,Under Construction,1345 ,27657,37200000.0,,Sector 43
1680,3.0,Under Construction,1248 ,26864,33500000.0,,Sector 43
1681,3.0,Under Construction,1248 ,26864,33500000.0,,Sector 43
1682,3.0,Under Construction,1345 ,27657,37200000.0,,Sector 43
1683,3.0,Under Construction,1345 ,27657,37200000.0,,Sector 43
1684,3.0,Under Construction,1249 ,26851,33500000.0,,Sector 43
1685,3.0,Under Construction,1249 ,26851,33500000.0,,Sector 43
1686,4.0,Under Construction,1753 ,23160,40600000.0,,Sector 43
1687,4.0,Under Construction,1753 ,23160,40600000.0,,Sector 43
1688,5.0,Under Construction,2080 ,24482,50900000.0,,Sector 43
1689,5.0,Under Construction,2080 ,24482,50900000.0,,Sector 43
1690,4.0,Under Construction,1848 ,23809,44000000.0,,Sector 43
1691,4.0,Under Construction,1848 ,23809,44000000.0,,Sector 43
1692,4.0,Ready to move,3430 ,11000,37700000.0,4 ,Sector 78
1693,3.0,Ready to move,1050 ,3476,3650000.0,2 ,Sector 73
1694,4.0,Under Construction,3550 ,13521,48000000.0,2 ,Sector 107
1695,4.0,Under Construction,3530 ,16997,60000000.0,,Sector 45
1696,3.0,Under Construction,2975 ,16672,49600000.0,,Sector 45
1697,3.0,Ready to move,1470 ,11000,16100000.0,,Sector 77
1698,3.0,Ready to move,1385 ,9500,13100000.0,,Sector 77
1699,4.0,Under Construction,1574 ,6672,10500000.0,,Sector 19 Yamuna Expressway
1700,3.0,Ready to move,1215 ,3195,3882000.0,2 ,Sector 25 Yamuna Express Way
1701,3.0,Under Construction,1580 ,8000,12600000.0,,Phase 2 Noida Extension
1702,4.0,Under Construction,2450 ,8000,19600000.0,,Phase 2 Noida Extension
1703,3.0,Under Construction,1600 ,8000,12800000.0,,Phase 2 Noida Extension
1704,3.0,Under Construction,1355 ,8000,10800000.0,,Phase 2 Noida Extension
1705,3.0,Under Construction,1895 ,8000,15100000.0,,Phase 2 Noida Extension
1706,3.0,Ready to move,1220 ,11967,14600000.0,2 ,Sector 137
1707,3.0,Ready to move,1577 ,7926,12500000.0,3 ,Sector 119
1708,5.0,Ready to move,4200 ,9523,40000000.0,4 ,Sector 77
1709,3.0,Ready to move,1395 ,9964,13900000.0,2 ,Sector 77
1710,5.0,Ready to move,3600 ,9722,35000000.0,4 ,Sector 77
1711,4.0,Ready to move,2450 ,10000,24500000.0,3 ,Sector 77
1712,3.0,Ready to move,1580 ,10000,15800000.0,3 ,Sector 77
1713,2.0,Ready to move,1135 ,8370,9500000.0,2 ,Sector 120
1714,3.0,Ready to move,1656 ,13586,22500000.0,2 ,Sector 75
1715,3.0,Ready to move,1575 ,9968,15700000.0,3 ,Sector 77
1716,3.0,Ready to move,1480 ,10000,14800000.0,2 ,Sector 77
1717,3.0,Ready to move,1739 ,7878,13700000.0,3 ,Sector 119
1718,8.0,Ready to move,5500 ,9454,52000000.0,7 ,Sector 41
1719,4.0,Ready to move,4720 ,11864,56000000.0,5 ,Sector 79
1720,4.0,Ready to move,2500 ,13800,34500000.0,4 ,Sector 78
1721,3.0,Ready to move,1690 ,10355,17500000.0,3 ,Sector 79
1722,,New,1116 ,5277,5889000.0,,Sector 19 Yamuna Expressway
1723,1.0,Ready to move,650 ,3846,2500000.0,1 ,Sector 120
1724,1.0,Ready to move,650 ,3846,2500000.0,1 ,Sector 73
1725,1.0,Ready to move,650 ,3846,2500000.0,1 ,Sector 73
1726,1.0,Ready to move,650 ,3846,2500000.0,1 ,Sector 73
1727,1.0,Ready to move,650 ,3846,2500000.0,1 ,Sector 73
1728,1.0,Ready to move,650 ,3846,2500000.0,1 ,Sector 73
1729,1.0,Ready to move,650 ,3846,2500000.0,1 ,Sector 73
1730,1.0,Ready to move,650 ,3846,2500000.0,1 ,Sector 73
1731,1.0,Ready to move,650 ,3846,2500000.0,1 ,Sector 73
1732,1.0,Ready to move,650 ,3846,2500000.0,1 ,Sector 73
1733,1.0,Ready to move,650 ,3846,2500000.0,1 ,Sector 73
1734,2.0,Under Construction,1100 ,11363,12500000.0,2 ,Sector 43
1735,,Resale,900 ,5000,4500000.0,,Yeida
1736,3.0,Ready to move,2223 ,8097,18000000.0,4 ,Sector 74
1737,4.0,Ready to move,3465 ,16400,56800000.0,4 ,Sector 128
1738,4.0,Ready to move,5200 ,16400,85200000.0,,Sector 128
1739,4.0,Ready to move,3325 ,16400,54500000.0,,Sector 128
1740,3.0,Ready to move,2460 ,13999,34400000.0,,Sector 150
1741,4.0,Under Construction,2364 ,38070,89900000.0,,Sector 128
1742,4.0,Under Construction,2840 ,36619,103900000.0,,Sector 128
1743,5.0,Under Construction,4613 ,56336,259800000.0,,Sector 128
1744,4.0,Under Construction,2824 ,36827,104000000.0,,Sector 128
1745,4.0,Under Construction,2381 ,38277,91000000.0,,Sector 128
1746,4.0,Under Construction,3131 ,12136,38000000.0,5 ,Sector 43
1747,3.0,Under Construction,2088 ,13170,27500000.0,,Sector 43
1748,3.0,Under Construction,2563 ,13265,34000000.0,4 ,Sector 43
1749,5.0,Under Construction,3760 ,12765,48000000.0,,Sector 43
1750,3.0,Under Construction,3270 ,19114,62500000.0,3 ,Sector 94
1751,5.0,Under Construction,5935 ,19477,115600000.0,,Sector 94
1752,4.0,Under Construction,4315 ,19304,83300000.0,4 ,Sector 94
1753,4.0,Ready to move,3465 ,16400,56800000.0,4 ,Sector 128
1754,4.0,Ready to move,5200 ,16400,85200000.0,,Sector 128
1755,4.0,Ready to move,3325 ,16400,54500000.0,,Sector 128
1756,4.0,Ready to move,3715 ,16400,60900000.0,,Sector 128
1757,4.0,Ready to move,3575 ,16400,58600000.0,,Sector 128
1758,3.0,Ready to move,2700 ,16400,44200000.0,,Sector 128
1759,5.0,Ready to move,4200 ,16400,68800000.0,,Sector 128
1760,5.0,Ready to move,11000 ,16400,180400000.0,,Sector 128
1761,4.0,Under Construction,1714 ,32731,56100000.0,,Sector 146
1762,3.0,Under Construction,1775 ,14998,26600000.0,2 ,Sector 152
1763,2.0,Under Construction,1350 ,13999,18800000.0,2 ,Sector 152
1764,3.0,Ready to move,1750 ,13999,24400000.0,,Sector 150
1765,4.0,Ready to move,3220 ,13999,45000000.0,,Sector 150
1766,3.0,Ready to move,2190 ,13999,30600000.0,,Sector 150
1767,3.0,Ready to move,2460 ,13999,34400000.0,,Sector 150
1768,4.0,Under Construction,2364 ,38070,89900000.0,,Sector 128
1769,4.0,Under Construction,2840 ,36619,103900000.0,,Sector 128
1770,5.0,Under Construction,4613 ,56336,259800000.0,,Sector 128
1771,4.0,Under Construction,2824 ,36827,104000000.0,,Sector 128
1772,4.0,Under Construction,2381 ,38277,91000000.0,,Sector 128
1773,4.0,Under Construction,3131 ,12136,38000000.0,5 ,Sector 43
1774,3.0,Under Construction,2088 ,13170,27500000.0,,Sector 43
1775,3.0,Under Construction,2563 ,13265,34000000.0,4 ,Sector 43
1776,5.0,Under Construction,3760 ,12765,48000000.0,,Sector 43
1777,3.0,Under Construction,3270 ,19114,62500000.0,3 ,Sector 94
1778,5.0,Under Construction,5935 ,19477,115600000.0,,Sector 94
1779,4.0,Under Construction,4315 ,19304,83300000.0,4 ,Sector 94
1780,3.0,Under Construction,1800 ,9000,16200000.0,,Noida Extensions
1781,3.0,Under Construction,2090 ,9000,18800000.0,,Noida Extensions
1782,3.0,Under Construction,2110 ,9000,18900000.0,,Noida Extensions
1783,3.0,Under Construction,1812 ,9000,16300000.0,,Noida Extensions
1784,4.0,Under Construction,2638 ,9000,23700000.0,,Noida Extensions
1785,4.0,Under Construction,2632 ,9000,23600000.0,,Noida Extensions
1786,3.0,Under Construction,1860 ,9000,16700000.0,,Noida Extensions
1787,3.0,Under Construction,2075 ,9000,18600000.0,,Noida Extensions
1788,3.0,Under Construction,2040 ,13500,27500000.0,2 ,Sector 94
1789,2.0,Under Construction,1380 ,13500,18600000.0,2 ,Sector 94
1790,1.0,Under Construction,800 ,14500,11600000.0,1 ,Sector 94
1791,1.0,Under Construction,595 ,14500,8627000.0,1 ,Sector 94
1792,2.0,Under Construction,1220 ,13500,16400000.0,2 ,Sector 94
1793,3.0,Under Construction,3000 ,16500,49500000.0,3 ,Sector 94
1794,2.0,Under Construction,1320 ,13500,17800000.0,2 ,Sector 94
1795,1.0,Under Construction,560 ,14500,8120000.0,1 ,Sector 94
1796,3.0,Under Construction,2105 ,13500,28400000.0,3 ,Sector 94
1797,4.0,Under Construction,3200 ,12226,39100000.0,4 ,Sector 150
1798,3.0,Under Construction,2350 ,12308,28900000.0,3 ,Sector 150
1799,3.0,Under Construction,2750 ,11000,30200000.0,,Sector 150
1800,3.0,Ready to move,1446 ,4910,7100000.0,3 ,Sector 70
1801,4.0,Under Construction,4150 ,16500,68400000.0,,Sector 94
1802,2.0,Under Construction,1650 ,13500,22200000.0,,Sector 94
1803,4.0,Under Construction,3840 ,15500,59500000.0,,Sector 94
1804,2.0,Under Construction,1776 ,13500,23900000.0,,Sector 94
1805,2.0,Under Construction,1475 ,13500,19900000.0,,Sector 94
1806,4.0,Under Construction,3770 ,15500,58400000.0,,Sector 94
1807,4.0,Under Construction,10485 ,29999,314500000.0,,Sector 94
1808,1.0,Under Construction,645 ,14500,9352000.0,,Sector 94
1809,3.0,Under Construction,5410 ,29999,162200000.0,,Sector 94
1810,3.0,Under Construction,4060 ,29999,121700000.0,,Sector 94
1811,4.0,Under Construction,6550 ,16500,108000000.0,,Sector 94
1812,4.0,Under Construction,4955 ,13500,66800000.0,,Sector 94
1813,2.0,Under Construction,1825 ,13500,24600000.0,,Sector 94
1814,3.0,Under Construction,2880 ,16500,47500000.0,,Sector 94
1815,3.0,Under Construction,4850 ,16500,80000000.0,,Sector 94
1816,4.0,Under Construction,3900 ,16500,64300000.0,,Sector 94
1817,4.0,Under Construction,7520 ,16500,124000000.0,,Sector 94
1818,4.0,Under Construction,5400 ,13500,72900000.0,,Sector 94
1819,4.0,Under Construction,7490 ,29999,224600000.0,,Sector 94
1820,4.0,Under Construction,9950 ,16500,164100000.0,,Sector 94
1821,3.0,Under Construction,3120 ,16500,51400000.0,,Sector 94
1822,2.0,Ready to move,1150 ,2782,3200000.0,2 ,Sector 74
1823,4.0,Under Construction,1819 ,10610,19300000.0,,Sector 150
1824,3.0,Under Construction,1130 ,9380,10600000.0,,Sector 150
1825,4.0,Under Construction,1615 ,10278,16600000.0,,Sector 150
1826,3.0,Under Construction,1356 ,10988,14900000.0,,Sector 150
1827,3.0,Under Construction,1227 ,9290,11400000.0,,Sector 150
1828,3.0,Under Construction,1575 ,5455,8591000.0,,Sector 150
1829,3.0,Under Construction,1285 ,5455,7009000.0,,Sector 150
1830,2.0,Under Construction,1100 ,5455,6000000.0,,Sector 150
1831,3.0,Ready to move,2151 ,12848,27600000.0,,Sector 104
1832,3.0,Ready to move,2000 ,12848,25600000.0,3 ,Sector 104
1833,3.0,Ready to move,1636 ,12848,21000000.0,3 ,Sector 104
1834,4.0,Ready to move,3115 ,12848,40000000.0,,Sector 104
1835,4.0,Ready to move,2900 ,12848,37200000.0,3 ,Sector 104
1836,4.0,Ready to move,3150 ,12848,40400000.0,2 ,Sector 104
1837,3.0,Ready to move,1759 ,12848,22500000.0,,Sector 104
1838,4.0,Ready to move,1835 ,12000,22000000.0,,Sector 78
1839,5.0,Ready to move,4000 ,12000,48000000.0,,Sector 78
1840,4.0,Ready to move,3150 ,12848,40400000.0,2 ,Sector 104
1841,3.0,Ready to move,1759 ,12848,22500000.0,,Sector 104
1842,4.0,Under Construction,3195 ,15500,49500000.0,4 ,Sector 117
1843,3.0,Under Construction,2304 ,14500,33400000.0,3 ,Sector 117
1844,2.0,Ready to move,1150 ,4480,5152000.0,,Sector 22D Yamuna Expressway
1845,4.0,Under Construction,3200 ,13226,42300000.0,4 ,Sector 150
1846,3.0,Under Construction,2350 ,13308,31200000.0,3 ,Sector 150
1847,3.0,Ready to move,1350 ,4480,6048000.0,,Sector 22D Yamuna Expressway
1848,3.0,Under Construction,2850 ,11000,31300000.0,,Sector 150
1849,3.0,Under Construction,2450 ,11000,26900000.0,,Sector 150
1850,4.0,Under Construction,3650 ,11000,40100000.0,,Sector 150
1851,3.0,Under Construction,1800 ,9000,16200000.0,,Noida Extensions
1852,3.0,Under Construction,2090 ,9000,18800000.0,,Noida Extensions
1853,3.0,Under Construction,2110 ,9000,18900000.0,,Noida Extensions
1854,3.0,Under Construction,1812 ,9000,16300000.0,,Noida Extensions
1855,4.0,Under Construction,2638 ,9000,23700000.0,,Noida Extensions
1856,4.0,Under Construction,2632 ,9000,23600000.0,,Noida Extensions
1857,3.0,Under Construction,1860 ,9000,16700000.0,,Noida Extensions
1858,3.0,Under Construction,2075 ,9000,18600000.0,,Noida Extensions
1859,3.0,Ready to move,1020 ,4583,4674000.0,,Sector 73
1860,2.0,Ready to move,740 ,4595,3400000.0,,Sector 73
1861,4.0,Ready to move,1320 ,4636,6119000.0,,Sector 73
1862,3.0,Ready to move,1060 ,4571,4845000.0,,Sector 73
1863,3.0,Ready to move,1100 ,4559,5014000.0,,Sector 73
1864,2.0,Ready to move,820 ,4665,3825000.0,,Sector 73
1865,2.0,Ready to move,700 ,4614,3229000.0,,Sector 73
1866,1.0,Ready to move,500 ,3850,1925000.0,,Sector 73
1867,2.0,Ready to move,750 ,3850,2887000.0,,Sector 73
1868,3.0,Under Construction,1404 ,5599,7862000.0,1 ,Sector 150
1869,3.0,Under Construction,1380 ,8262,11400000.0,2 ,Noida Extensions
1870,3.0,Under Construction,1549 ,8458,13100000.0,,Noida Extensions
1871,4.0,Under Construction,2038 ,8392,17100000.0,,Noida Extensions
1872,3.0,Ready to move,1645 ,8500,13900000.0,2 ,Sector 79
1873,5.0,Ready to move,2715 ,8500,23000000.0,1 ,Sector 79
1874,3.0,Ready to move,1895 ,8500,16100000.0,3 ,Sector 79
1875,2.0,Ready to move,1215 ,8500,10300000.0,,Sector 79
1876,3.0,Ready to move,1620 ,8500,13700000.0,,Sector 79
1877,2.0,Ready to move,1385 ,8500,11700000.0,2 ,Sector 79
1878,2.0,Ready to move,1245 ,8500,10500000.0,,Sector 79
1879,4.0,Ready to move,2335 ,8500,19800000.0,3 ,Sector 79
1880,4.0,Under Construction,2511 ,14500,36400000.0,4 ,Sector 75
1881,3.0,Ready to move,3302 ,16000,52800000.0,3 ,Sector 108
1882,3.0,Under Construction,1656 ,14500,24000000.0,3 ,Sector 75
1883,3.0,Under Construction,3501 ,18500,64700000.0,4 ,Sector 107
1884,3.0,Under Construction,2570 ,17950,46100000.0,4 ,Sector 43
1885,3.0,Under Construction,2124 ,14500,30700000.0,3 ,Sector 75
1886,4.0,Under Construction,4482 ,18500,82900000.0,4 ,Sector 107
1887,3.0,Under Construction,2258 ,18000,40600000.0,4 ,Sector 43
1888,3.0,Ready to move,3995 ,16000,63900000.0,3 ,Sector 108
1889,5.0,Ready to move,4075 ,12000,48900000.0,,Sector 78
1890,3.0,Ready to move,1335 ,12000,16000000.0,,Sector 78
1891,4.0,Ready to move,3200 ,12000,38400000.0,,Sector 78
1892,2.0,Ready to move,1042 ,12000,12500000.0,2 ,Sector 78
1893,4.0,Ready to move,2925 ,12000,35100000.0,,Sector 78
1894,5.0,Ready to move,4900 ,12000,58800000.0,,Sector 78
1895,5.0,Ready to move,3700 ,12000,44400000.0,,Sector 78
1896,2.0,Ready to move,1290 ,12000,15400000.0,,Sector 78
1897,4.0,Ready to move,3861 ,9697,37400000.0,,Sector 79
1898,4.0,Ready to move,2890 ,9136,26400000.0,,Sector 79
1899,4.0,Ready to move,4922 ,9698,47700000.0,,Sector 79
1900,4.0,Ready to move,2525 ,9698,24400000.0,,Sector 79
1901,3.0,Ready to move,3885 ,9697,37600000.0,,Sector 79
1902,4.0,Ready to move,3179 ,9698,30800000.0,,Sector 79
1903,4.0,Ready to move,4886 ,9698,47300000.0,,Sector 79
1904,4.0,Ready to move,2690 ,6500,17400000.0,,Sector 79
1905,3.0,Ready to move,2665 ,9698,25800000.0,,Sector 79
1906,5.0,Ready to move,6805 ,9697,65900000.0,,Sector 79
1907,3.0,Ready to move,1495 ,10368,15500000.0,,Sector 79
1908,4.0,Ready to move,3206 ,9698,31000000.0,,Sector 79
1909,3.0,Ready to move,1735 ,6500,11200000.0,,Sector 79
1910,5.0,Ready to move,6931 ,9698,67200000.0,,Sector 79
1911,4.0,Ready to move,2166 ,12000,25900000.0,,Sector 78
1912,4.0,Ready to move,5593 ,9697,54200000.0,,Sector 79
1913,4.0,Ready to move,3523 ,9698,34100000.0,,Sector 79
1914,5.0,Ready to move,4805 ,9697,46500000.0,,Sector 79
1915,3.0,Ready to move,3429 ,9698,33200000.0,,Sector 79
1916,4.0,Ready to move,4351 ,9698,42100000.0,,Sector 79
1917,4.0,Ready to move,3415 ,9698,33100000.0,,Sector 79
1918,4.0,Ready to move,2950 ,12000,35400000.0,,Sector 78
1919,4.0,Ready to move,1970 ,12000,23600000.0,,Sector 78
1920,3.0,Ready to move,3885 ,9697,37600000.0,,Sector 79
1921,4.0,Ready to move,3179 ,9698,30800000.0,,Sector 79
1922,4.0,Ready to move,4886 ,9698,47300000.0,,Sector 79
1923,4.0,Ready to move,2690 ,6500,17400000.0,,Sector 79
1924,3.0,Ready to move,2665 ,9698,25800000.0,,Sector 79
1925,5.0,Ready to move,6805 ,9697,65900000.0,,Sector 79
1926,3.0,Ready to move,1495 ,10368,15500000.0,,Sector 79
1927,4.0,Ready to move,3206 ,9698,31000000.0,,Sector 79
1928,3.0,Ready to move,1735 ,6500,11200000.0,,Sector 79
1929,5.0,Ready to move,6931 ,9698,67200000.0,,Sector 79
1930,4.0,Ready to move,2166 ,12000,25900000.0,,Sector 78
1931,4.0,Ready to move,5593 ,9697,54200000.0,,Sector 79
1932,4.0,Ready to move,3523 ,9698,34100000.0,,Sector 79
1933,5.0,Ready to move,4805 ,9697,46500000.0,,Sector 79
1934,3.0,Ready to move,3429 ,9698,33200000.0,,Sector 79
1935,4.0,Ready to move,4351 ,9698,42100000.0,,Sector 79
1936,4.0,Ready to move,3415 ,9698,33100000.0,,Sector 79
1937,4.0,Ready to move,2950 ,12000,35400000.0,,Sector 78
1938,4.0,Ready to move,1970 ,12000,23600000.0,,Sector 78
1939,3.0,Ready to move,1825 ,12000,21900000.0,,Sector 78
1940,3.0,Ready to move,1550 ,12000,18600000.0,,Sector 78
1941,3.0,Ready to move,1155 ,12000,13800000.0,2 ,Sector 78
1942,2.0,Ready to move,1150 ,12000,13800000.0,,Sector 78
1943,4.0,Ready to move,1520 ,12000,18200000.0,,Sector 78
1944,3.0,Ready to move,1655 ,12000,19800000.0,,Sector 78
1945,3.0,Ready to move,1260 ,12000,15100000.0,2 ,Sector 78
1946,3.0,Ready to move,1010 ,12000,12100000.0,,Sector 78
1947,3.0,Ready to move,2070 ,12000,24800000.0,2 ,Sector 78
1948,2.0,Ready to move,1530 ,12000,18300000.0,,Sector 78
1949,4.0,Ready to move,2275 ,9524,21600000.0,4 ,Sector 75
1950,3.0,Ready to move,1900 ,9524,18000000.0,,Sector 75
1951,5.0,Ready to move,6000 ,9524,57100000.0,,Sector 75
1952,2.0,Ready to move,1370 ,9524,13000000.0,,Sector 75
1953,3.0,Ready to move,2175 ,9524,20700000.0,,Sector 75
1954,4.0,Ready to move,2700 ,9524,25700000.0,,Sector 75
1955,2.0,Ready to move,1260 ,9524,12000000.0,,Sector 75
1956,6.0,Ready to move,8000 ,9524,76100000.0,,Sector 75
1957,2.0,Ready to move,1245 ,8500,10500000.0,,Sector 79
1958,3.0,Ready to move,1525 ,9524,14500000.0,,Sector 75
1959,4.0,Ready to move,2335 ,8500,19800000.0,3 ,Sector 79
1960,4.0,Ready to move,3280 ,12000,39300000.0,,Sector 78
1961,3.0,Ready to move,1900 ,12000,22800000.0,,Sector 78
1962,3.0,Ready to move,1650 ,12000,19800000.0,,Sector 78
1963,4.0,Ready to move,2303 ,12000,27600000.0,,Sector 78
1964,4.0,Ready to move,2295 ,12000,27500000.0,,Sector 78
1965,2.0,Ready to move,1250 ,12000,15000000.0,,Sector 78
1966,2.0,Ready to move,1090 ,12000,13000000.0,,Sector 78
1967,3.0,Ready to move,1500 ,12000,18000000.0,2 ,Sector 78
1968,2.0,Ready to move,1365 ,12000,16300000.0,2 ,Sector 78
1969,3.0,Ready to move,1340 ,12000,16000000.0,,Sector 78
1970,3.0,Ready to move,1345 ,12000,16100000.0,,Sector 78
1971,5.0,Ready to move,3260 ,12000,39100000.0,,Sector 78
1972,4.0,Ready to move,1990 ,12000,23800000.0,,Sector 78
1973,5.0,Ready to move,2975 ,12000,35700000.0,,Sector 78
1974,4.0,Ready to move,3250 ,12000,39000000.0,,Sector 78
1975,3.0,Ready to move,1480 ,12000,17700000.0,,Sector 78
1976,3.0,Ready to move,990 ,4650,4603000.0,2 ,Sector 117
1977,1.0,Ready to move,460 ,4650,2139000.0,1 ,Sector 117
1978,2.0,Ready to move,766 ,4650,3561000.0,2 ,Sector 117
1979,3.0,Ready to move,951 ,4650,4422000.0,,Sector 117
1980,3.0,Ready to move,1640 ,9990,16300000.0,,Sector 77
1981,3.0,Ready to move,2300 ,9990,22900000.0,,Sector 77
1982,3.0,Ready to move,1910 ,9990,19000000.0,,Sector 77
1983,3.0,Ready to move,1650 ,9990,16400000.0,,Sector 77
1984,5.0,Ready to move,4200 ,9990,41900000.0,,Sector 77
1985,3.0,Ready to move,2250 ,9990,22400000.0,,Sector 77
1986,3.0,Ready to move,1890 ,9990,18800000.0,,Sector 77
1987,5.0,Ready to move,3600 ,9990,35900000.0,,Sector 77
1988,2.0,Ready to move,1100 ,9990,10900000.0,2 ,Sector 77
1989,3.0,Ready to move,2270 ,9990,22600000.0,,Sector 77
1990,2.0,Ready to move,995 ,9990,9940000.0,,Sector 77
1991,3.0,Ready to move,2750 ,9990,27400000.0,,Sector 77
1992,3.0,Ready to move,1480 ,9990,14700000.0,,Sector 77
1993,4.0,Ready to move,2450 ,9990,24400000.0,,Sector 77
1994,4.0,Ready to move,2760 ,9990,27500000.0,,Sector 77
1995,3.0,Ready to move,2730 ,9990,27200000.0,,Sector 77
1996,3.0,Ready to move,2200 ,9990,21900000.0,,Sector 77
1997,3.0,Ready to move,1330 ,9990,13200000.0,,Sector 77
1998,3.0,Ready to move,1575 ,9990,15700000.0,,Sector 77
1999,3.0,Ready to move,1970 ,9990,19600000.0,,Sector 77
2000,3.0,Ready to move,2750 ,9990,27400000.0,,Sector 77
2001,3.0,Ready to move,1480 ,9990,14700000.0,,Sector 77
2002,4.0,Ready to move,2450 ,9990,24400000.0,,Sector 77
2003,4.0,Ready to move,2760 ,9990,27500000.0,,Sector 77
2004,3.0,Ready to move,2730 ,9990,27200000.0,,Sector 77
2005,3.0,Ready to move,2200 ,9990,21900000.0,,Sector 77
2006,3.0,Ready to move,1330 ,9990,13200000.0,,Sector 77
2007,3.0,Ready to move,1575 ,9990,15700000.0,,Sector 77
2008,3.0,Ready to move,1970 ,9990,19600000.0,,Sector 77
2009,3.0,Ready to move,1580 ,9990,15700000.0,,Sector 77
2010,2.0,Ready to move,1320 ,9990,13100000.0,,Sector 77
2011,3.0,Ready to move,1950 ,9990,19400000.0,,Sector 77
2012,2.0,Ready to move,1430 ,9990,14200000.0,,Sector 77
2013,2.0,Ready to move,1285 ,9990,12800000.0,,Sector 77
2014,2.0,Ready to move,1150 ,9990,11400000.0,2 ,Sector 77
2015,3.0,Ready to move,1790 ,9990,17800000.0,,Sector 77
2016,3.0,Ready to move,1395 ,9990,13900000.0,,Sector 77
2017,3.0,Ready to move,1250 ,3680,4600000.0,3 ,Sector-106 Noida
2018,,New,1000 ,2200,2200000.0,,Atai Muradapur
2019,2.0,Under Construction,650 ,11198,7278000.0,,Sector 32
2020,2.0,Under Construction,541 ,11197,6057000.0,,Sector 32
2021,3.0,Under Construction,814 ,11199,9116000.0,,Sector 32
2022,2.0,Under Construction,612 ,11196,6852000.0,,Sector 32
2023,4.0,Under Construction,3200 ,5350,17100000.0,,Sector 150
2024,3.0,Under Construction,2000 ,5350,10700000.0,,Sector 150
2025,3.0,Under Construction,2300 ,5350,12300000.0,,Sector 150
2026,3.0,Under Construction,1625 ,5350,8693000.0,,Sector 150
2027,3.0,Under Construction,1800 ,4000,7200000.0,,Sector 150
2028,3.0,Under Construction,1600 ,3850,6160000.0,,Sector 150
2029,2.0,Under Construction,890 ,13146,11700000.0,,Sector 150
2030,3.0,Under Construction,1322 ,11951,15800000.0,,Sector 150
2031,3.0,Under Construction,1794 ,11315,20300000.0,,Sector 150
2032,2.0,Under Construction,849 ,12720,10800000.0,,Sector 150
2033,3.0,Under Construction,1511 ,12243,18500000.0,,Sector 150
2034,1.0,Ready to move,525 ,8500,4462000.0,,Sector 78
2035,3.0,Ready to move,1550 ,8500,13100000.0,,Sector 78
2036,3.0,Ready to move,1320 ,8500,11200000.0,,Sector 78
2037,4.0,Ready to move,2380 ,8500,20200000.0,,Sector 78
2038,3.0,Ready to move,1835 ,8500,15500000.0,,Sector 78
2039,2.0,Ready to move,1080 ,8500,9180000.0,,Sector 78
2040,3.0,Ready to move,2276 ,9500,21600000.0,,Sector 77
2041,1.0,Ready to move,525 ,8500,4462000.0,,Sector 78
2042,3.0,Ready to move,1550 ,8500,13100000.0,,Sector 78
2043,3.0,Ready to move,1320 ,8500,11200000.0,,Sector 78
2044,4.0,Ready to move,2380 ,8500,20200000.0,,Sector 78
2045,3.0,Ready to move,1835 ,8500,15500000.0,,Sector 78
2046,2.0,Ready to move,1080 ,8500,9180000.0,,Sector 78
2047,3.0,Ready to move,1380 ,4710,6500000.0,3 ,Sector 102
2048,3.0,Ready to move,1380 ,4782,6600000.0,3 ,Sector 102
2049,3.0,Ready to move,1380 ,4710,6500000.0,3 ,Sector 102
2050,3.0,Ready to move,1380 ,4637,6400000.0,3 ,Sector 102
2051,3.0,Ready to move,1380 ,4492,6200000.0,3 ,Sector 102
2052,2.0,Ready to move,950 ,4000,3800000.0,2 ,Sector 102
2053,2.0,Ready to move,750 ,4000,3000000.0,2 ,Sector 162
2054,2.0,Ready to move,930 ,3763,3500000.0,2 ,Sector 102
2055,3.0,Under Construction,1675 ,4950,8291000.0,,Sector 150
2056,3.0,Under Construction,1615 ,4950,7994000.0,3 ,Sector 150
2057,3.0,Under Construction,1400 ,4950,6930000.0,3 ,Sector 150
2058,4.0,Ready to move,3998 ,10630,42500000.0,5 ,Sector 128
2059,2.0,Under Construction,1155 ,7445,8600000.0,2 ,Sector 150
2060,2.0,Under Construction,1155 ,7445,8600000.0,2 ,Sector 150
2061,2.0,Under Construction,1155 ,7445,8600000.0,2 ,Sector 150
2062,2.0,Under Construction,1155 ,7445,8600000.0,2 ,Sector 150
2063,3.0,Ready to move,1945 ,7490,14500000.0,,Sector 150
2064,3.0,Ready to move,2385 ,7990,19000000.0,,Sector 150
2065,3.0,Ready to move,1760 ,7490,13100000.0,,Sector 150
2066,3.0,Ready to move,2500 ,12000,30000000.0,,Sector 78
2067,3.0,Under Construction,1900 ,10500,19900000.0,,Sector 143B
2068,4.0,Under Construction,3300 ,13219,43600000.0,3 ,Sector 150
2069,3.0,Under Construction,2350 ,13308,31200000.0,3 ,Sector 150
2070,4.0,Under Construction,6000 ,25000,150000000.0,4 ,Sector 94
2071,6.0,Under Construction,10050 ,25000,251200000.0,,Sector 94
2072,4.0,Under Construction,6235 ,25000,155800000.0,,Sector 94
2073,3.0,Under Construction,2034 ,12900,26200000.0,3 ,Sector 117
2074,3.0,Under Construction,2304 ,12900,29700000.0,3 ,Sector 117
2075,3.0,Under Construction,1580 ,8000,12600000.0,,Phase 2 Noida Extension
2076,4.0,Under Construction,2450 ,8000,19600000.0,,Phase 2 Noida Extension
2077,3.0,Under Construction,1895 ,8000,15100000.0,,Phase 2 Noida Extension
2078,3.0,Under Construction,1355 ,8000,10800000.0,,Phase 2 Noida Extension
2079,3.0,Under Construction,1600 ,8000,12800000.0,,Phase 2 Noida Extension
2080,5.0,Ready to move,6300 ,16500,103900000.0,,Sector 75
2081,4.0,Ready to move,3300 ,16500,54400000.0,,Sector 75
2082,4.0,Ready to move,3030 ,16500,49900000.0,,Sector 75
2083,3.0,Ready to move,2510 ,16500,41400000.0,,Sector 75
2084,5.0,Ready to move,5300 ,16500,87400000.0,,Sector 75
2085,5.0,Ready to move,5300 ,16400,86900000.0,,Sector 128
2086,3.0,Under Construction,3019 ,15000,45200000.0,,Sector 150
2087,3.0,Under Construction,2500 ,14900,37200000.0,3 ,Sector 107
2088,3.0,Under Construction,2160 ,15000,32400000.0,3 ,Sector 150
2089,4.0,Under Construction,2970 ,14900,44200000.0,4 ,Sector 107
2090,3.0,Under Construction,2493 ,15000,37300000.0,3 ,Sector 150
2091,3.0,Under Construction,2575 ,14900,38300000.0,3 ,Sector 107
2092,3.0,Under Construction,2492 ,15000,37300000.0,,Sector 150
2093,4.0,Under Construction,3550 ,14900,52800000.0,,Sector 107
2094,2.0,Under Construction,1515 ,15000,22700000.0,,Sector 150
2095,3.0,Under Construction,2375 ,15000,35600000.0,3 ,Sector 150
2096,2.0,Under Construction,1480 ,15000,22200000.0,2 ,Sector 150
2097,2.0,Under Construction,1587 ,15000,23800000.0,2 ,Sector 150
2098,3.0,Under Construction,2857 ,15000,42800000.0,3 ,Sector 150
2099,3.0,Under Construction,2473 ,15000,37000000.0,3 ,Sector 150
2100,3.0,Under Construction,3270 ,19114,62500000.0,3 ,Sector 94
2101,4.0,Ready to move,4482 ,18500,82900000.0,,Sector 107
2102,5.0,Under Construction,5935 ,19477,115600000.0,,Sector 94
2103,5.0,Ready to move,6570 ,18500,121500000.0,,Sector 107
2104,4.0,Under Construction,4315 ,19304,83300000.0,4 ,Sector 94
2105,4.0,Under Construction,3000 ,14900,44700000.0,4 ,Sector 107
2106,4.0,Under Construction,3720 ,14900,55400000.0,,Sector 107
2107,3.0,Ready to move,1285 ,8171,10500000.0,3 ,Sector 150
2108,3.0,Under Construction,1355 ,7200,9756000.0,3 ,Sector 144
2109,3.0,Under Construction,2330 ,7038,16400000.0,3 ,Sector 150
2110,3.0,Ready to move,1750 ,10000,17500000.0,3 ,Sector 150
2111,4.0,Under Construction,3200 ,13226,42300000.0,5 ,Sector 152
2112,3.0,Under Construction,1850 ,13391,24700000.0,3 ,Sector 152
2113,3.0,Ready to move,1525 ,10491,16000000.0,2 ,Sector 75
2114,3.0,Under Construction,2230 ,13183,29400000.0,4 ,Sector 150
2115,3.0,Under Construction,1980 ,13181,26100000.0,4 ,Sector 150
2116,3.0,Under Construction,1860 ,10215,19000000.0,3 ,Sector 150
2117,3.0,Under Construction,1700 ,13000,22100000.0,3 ,Sector 150
2118,3.0,Ready to move,1750 ,15000,26200000.0,3 ,Sector 150
2119,5.0,Under Construction,6200 ,10564,65500000.0,5 ,Sector 150
2120,4.0,Under Construction,3550 ,14900,52800000.0,,Sector 107
2121,4.0,Under Construction,2970 ,14900,44200000.0,4 ,Sector 107
2122,4.0,Under Construction,2201 ,24600,54100000.0,,Sector 107
2123,3.0,Under Construction,1847 ,24600,45400000.0,,Sector 107
2124,3.0,Under Construction,1700 ,12000,20400000.0,3 ,Sector 150
2125,4.0,Ready to move,3996 ,12955,51700000.0,3 ,Sector 108
2126,4.0,Under Construction,3355 ,13000,43600000.0,,Sector 150
2127,3.0,Ready to move,3302 ,12955,42700000.0,2 ,Sector 108
2128,3.0,Under Construction,2040 ,13000,26500000.0,,Sector 150
2129,4.0,Ready to move,4874 ,12955,63100000.0,3 ,Sector 108
2130,4.0,Under Construction,6100 ,5147,31400000.0,,Sector 150
2131,3.0,Under Construction,2555 ,13000,33200000.0,,Sector 150
2132,3.0,Ready to move,2500 ,12000,30000000.0,,Sector 78
2133,3.0,Under Construction,1900 ,10500,19900000.0,,Sector 143B
2134,4.0,Under Construction,3300 ,13219,43600000.0,3 ,Sector 150
2135,3.0,Under Construction,2350 ,13308,31200000.0,3 ,Sector 150
2136,4.0,Under Construction,6000 ,25000,150000000.0,4 ,Sector 94
2137,6.0,Under Construction,10050 ,25000,251200000.0,,Sector 94
2138,4.0,Under Construction,6235 ,25000,155800000.0,,Sector 94
2139,4.0,Under Construction,3200 ,13226,42300000.0,4 ,Sector 150
2140,3.0,Under Construction,2350 ,13308,31200000.0,3 ,Sector 150
2141,3.0,Ready to move,783 ,13409,10500000.0,3 ,Sector 150
2142,3.0,Ready to move,981 ,13047,12800000.0,,Sector 150
2143,3.0,Under Construction,1675 ,12253,20500000.0,,Sector 150
2144,3.0,Under Construction,1615 ,12263,19800000.0,2 ,Sector 150
2145,3.0,Under Construction,1400 ,12303,17200000.0,3 ,Sector 150
2146,3.0,Under Construction,1775 ,14998,26600000.0,2 ,Sector 152
2147,2.0,Under Construction,1350 ,13999,18800000.0,2 ,Sector 152
2148,4.0,Under Construction,6100 ,25000,152500000.0,,Sector 94
2149,4.0,Under Construction,6050 ,25000,151200000.0,,Sector 94
2150,4.0,Under Construction,6285 ,24999,157100000.0,,Sector 94
2151,4.0,Under Construction,6150 ,25000,153700000.0,,Sector 94
2152,3.0,Under Construction,2034 ,12900,26200000.0,,Sector 117
2153,4.0,Under Construction,3987 ,12900,51400000.0,,Sector 117
2154,4.0,Under Construction,2799 ,12900,36100000.0,4 ,Sector 117
2155,3.0,Under Construction,2304 ,12900,29700000.0,,Sector 117
2156,4.0,Under Construction,3294 ,12900,42400000.0,,Sector 117
2157,5.0,Under Construction,6939 ,12900,89500000.0,,Sector 117
2158,4.0,Under Construction,4707 ,12900,60700000.0,,Sector 117
2159,3.0,Ready to move,1690 ,11000,18500000.0,,Sector 150
2160,3.0,Ready to move,981 ,13047,12800000.0,,Sector 150
2161,4.0,Ready to move,4425 ,12000,53100000.0,,Sector 78
2162,4.0,Ready to move,3430 ,12000,41100000.0,,Sector 78
2163,4.0,Ready to move,3370 ,12000,40400000.0,3 ,Sector 78
2164,3.0,Ready to move,2460 ,13999,34400000.0,,Sector 150
2165,3.0,Ready to move,2190 ,13999,30600000.0,,Sector 150
2166,5.0,Ready to move,3775 ,12000,45300000.0,,Sector 78
2167,4.0,Ready to move,3220 ,13999,45000000.0,,Sector 150
2168,3.0,Ready to move,1750 ,13999,24400000.0,,Sector 150
2169,3.0,Ready to move,2500 ,12000,30000000.0,,Sector 78
2170,3.0,Ready to move,3475 ,12000,41700000.0,,Sector 78
2171,3.0,Ready to move,3020 ,12000,36200000.0,,Sector 78
2172,3.0,Ready to move,3070 ,12000,36800000.0,,Sector 78
2173,4.0,Ready to move,3525 ,12000,42300000.0,,Sector 78
2174,2.0,Under Construction,1137 ,10461,11800000.0,,Sector 150
2175,3.0,Under Construction,1656 ,13000,21500000.0,2 ,Sector 75
2176,3.0,Under Construction,2124 ,13000,27600000.0,3 ,Sector 75
2177,2.0,Under Construction,1155 ,10454,12000000.0,2 ,Sector 150
2178,4.0,Under Construction,2511 ,13000,32600000.0,4 ,Sector 75
2179,4.0,Ready to move,4425 ,12000,53100000.0,,Sector 78
2180,3.0,Under Construction,1404 ,11405,16000000.0,1 ,Sector 150
2181,4.0,Ready to move,3430 ,12000,41100000.0,,Sector 78
2182,4.0,Ready to move,3370 ,12000,40400000.0,3 ,Sector 78
2183,5.0,Ready to move,3775 ,12000,45300000.0,,Sector 78
2184,3.0,Ready to move,3475 ,12000,41700000.0,,Sector 78
2185,3.0,Ready to move,3020 ,12000,36200000.0,,Sector 78
2186,3.0,Ready to move,3070 ,12000,36800000.0,,Sector 78
2187,4.0,Ready to move,3525 ,12000,42300000.0,,Sector 78
2188,2.0,Ready to move,648 ,14376,9316000.0,,Sector 150
2189,3.0,Under Construction,1700 ,12000,20400000.0,3 ,Sector 150
2190,4.0,Ready to move,3996 ,12955,51700000.0,3 ,Sector 108
2191,4.0,Under Construction,3355 ,13000,43600000.0,,Sector 150
2192,3.0,Ready to move,3302 ,12955,42700000.0,2 ,Sector 108
2193,4.0,Under Construction,3550 ,14900,52800000.0,,Sector 107
2194,4.0,Under Construction,2970 ,14900,44200000.0,4 ,Sector 107
2195,4.0,Under Construction,2201 ,24600,54100000.0,,Sector 107
2196,3.0,Under Construction,1847 ,24600,45400000.0,,Sector 107
2197,6.0,Under Construction,10000 ,25000,250000000.0,,Sector 94
2198,4.0,Under Construction,6100 ,25000,152500000.0,,Sector 94
2199,4.0,Under Construction,6050 ,25000,151200000.0,,Sector 94
2200,4.0,Under Construction,6285 ,24999,157100000.0,,Sector 94
2201,4.0,Under Construction,6150 ,25000,153700000.0,,Sector 94
2202,3.0,Under Construction,2034 ,12900,26200000.0,,Sector 117
2203,4.0,Under Construction,3987 ,12900,51400000.0,,Sector 117
2204,4.0,Under Construction,2799 ,12900,36100000.0,4 ,Sector 117
2205,3.0,Under Construction,2304 ,12900,29700000.0,,Sector 117
2206,4.0,Under Construction,3294 ,12900,42400000.0,,Sector 117
2207,5.0,Under Construction,6939 ,12900,89500000.0,,Sector 117
2208,4.0,Under Construction,4707 ,12900,60700000.0,,Sector 117
2209,3.0,Ready to move,1690 ,11000,18500000.0,,Sector 150
2210,3.0,Ready to move,1495 ,11000,16400000.0,,Sector 150
2211,2.0,Ready to move,1245 ,11000,13600000.0,,Sector 150
2212,4.0,Under Construction,2305 ,24609,56700000.0,,Sector 107
2213,3.0,Under Construction,1313 ,24600,32200000.0,,Sector 107
2214,4.0,Under Construction,1685 ,24600,41400000.0,,Sector 107
2215,4.0,Under Construction,2159 ,24600,53100000.0,,Sector 107
2216,4.0,Under Construction,3701 ,30180,111600000.0,,Sector 107
2217,4.0,Under Construction,2026 ,24610,49800000.0,,Sector 107
2218,3.0,Under Construction,1345 ,24600,33000000.0,,Sector 107
2219,4.0,Under Construction,2068 ,24610,50800000.0,,Sector 107
2220,4.0,Under Construction,2374 ,24604,58400000.0,,Sector 107
2221,4.0,Under Construction,1678 ,24600,41200000.0,,Sector 107
2222,4.0,Under Construction,3483 ,24600,85600000.0,,Sector 107
2223,4.0,Under Construction,2364 ,38070,89900000.0,,Sector 128
2224,4.0,Under Construction,2840 ,36619,103900000.0,,Sector 128
2225,5.0,Under Construction,4613 ,56336,259800000.0,,Sector 128
2226,4.0,Under Construction,2824 ,36827,104000000.0,,Sector 128
2227,4.0,Under Construction,2381 ,38277,91000000.0,,Sector 128
2228,3.0,Ready to move,2250 ,9500,21300000.0,,Sector 150
2229,3.0,Ready to move,1860 ,9500,17600000.0,,Sector 150
2230,4.0,Under Construction,3000 ,14900,44700000.0,4 ,Sector 107
2231,4.0,Under Construction,3720 ,14900,55400000.0,,Sector 107
2232,3.0,Under Construction,2500 ,14900,37200000.0,3 ,Sector 107
2233,3.0,Under Construction,2575 ,14900,38300000.0,3 ,Sector 107
2234,3.0,Ready to move,2500 ,12000,30000000.0,,Sector 78
2235,3.0,Under Construction,1900 ,10500,19900000.0,,Sector 143B
2236,4.0,Under Construction,3300 ,13219,43600000.0,3 ,Sector 150
2237,3.0,Under Construction,2350 ,13308,31200000.0,3 ,Sector 150
2238,4.0,Under Construction,6000 ,25000,150000000.0,4 ,Sector 94
2239,6.0,Under Construction,10050 ,25000,251200000.0,,Sector 94
2240,4.0,Under Construction,6235 ,25000,155800000.0,,Sector 94
2241,4.0,Ready to move,4874 ,12955,63100000.0,3 ,Sector 108
2242,4.0,Under Construction,6100 ,5147,31400000.0,,Sector 150
2243,3.0,Under Construction,2555 ,13000,33200000.0,,Sector 150
2244,3.0,Under Construction,2040 ,13000,26500000.0,,Sector 150
2245,4.0,Ready to move,3200 ,10000,32000000.0,,Sector 150
2246,3.0,Ready to move,2300 ,10000,23000000.0,,Sector 150
2247,3.0,Ready to move,1750 ,10000,17500000.0,,Sector 150
2248,4.0,Ready to move,3861 ,9697,37400000.0,,Sector 79
2249,4.0,Ready to move,2890 ,9136,26400000.0,,Sector 79
2250,4.0,Ready to move,4922 ,9698,47700000.0,,Sector 79
2251,4.0,Ready to move,2525 ,9698,24400000.0,,Sector 79
2252,3.0,Ready to move,3885 ,9697,37600000.0,,Sector 79
2253,4.0,Ready to move,3179 ,9698,30800000.0,,Sector 79
2254,4.0,Ready to move,4886 ,9698,47300000.0,,Sector 79
2255,4.0,Ready to move,2690 ,6500,17400000.0,,Sector 79
2256,3.0,Ready to move,2665 ,9698,25800000.0,,Sector 79
2257,5.0,Ready to move,6805 ,9697,65900000.0,,Sector 79
2258,3.0,Ready to move,1495 ,10368,15500000.0,,Sector 79
2259,4.0,Ready to move,3206 ,9698,31000000.0,,Sector 79
2260,1.0,Under Construction,803 ,7600,6102000.0,1 ,Sector 140A
2261,3.0,Under Construction,1475 ,7186,10600000.0,3 ,Sector 144
2262,3.0,Ready to move,1575 ,8126,12800000.0,3 ,Sector 150
2263,3.0,Under Construction,1370 ,7200,9864000.0,3 ,Sector 144
2264,6.0,Ready to move,7000 ,11285,79000000.0,6 ,Sector 100
2265,1.0,Under Construction,1050 ,7600,7980000.0,1 ,Sector 140A
2266,3.0,Under Construction,1500 ,3078,4617000.0,2 ,Sector 44
2267,3.0,Ready to move,1350 ,2962,4000000.0,1 ,Sector 73
2268,3.0,Ready to move,1725 ,8115,14000000.0,4 ,Sector 137
2269,1.0,Under Construction,983 ,7600,7470000.0,1 ,Sector 140A
2270,3.0,Under Construction,2250 ,8844,19900000.0,4 ,Sector 150
2271,4.0,Under Construction,2990 ,13177,39400000.0,4 ,Sector 150
2272,1.0,Under Construction,731 ,7599,5555000.0,1 ,Sector 140A
2273,3.0,Ready to move,1250 ,8960,11200000.0,3 ,Sector 78
2274,3.0,Ready to move,2000 ,10000,20000000.0,3 ,Sector 150
2275,2.0,Ready to move,1100 ,8469,9316000.0,2 ,Sector 150
2276,1.0,Under Construction,530 ,8000,4240000.0,1 ,Sector 132
2277,3.0,Ready to move,1835 ,11989,22000000.0,3 ,Sector 137
2278,2.0,Ready to move,1110 ,9909,11000000.0,2 ,Sector 137
2279,1.0,Under Construction,880 ,7600,6688000.0,1 ,Sector 140A
2280,3.0,Ready to move,981 ,13047,12800000.0,,Sector 150
2281,6.0,Under Construction,10000 ,25000,250000000.0,,Sector 94
2282,4.0,Ready to move,4425 ,12000,53100000.0,,Sector 78
2283,4.0,Ready to move,3430 ,12000,41100000.0,,Sector 78
2284,4.0,Ready to move,3370 ,12000,40400000.0,3 ,Sector 78
2285,3.0,Ready to move,2460 ,13999,34400000.0,,Sector 150
2286,3.0,Ready to move,2190 ,13999,30600000.0,,Sector 150
2287,5.0,Ready to move,3775 ,12000,45300000.0,,Sector 78
2288,4.0,Ready to move,3220 ,13999,45000000.0,,Sector 150
2289,3.0,Ready to move,1750 ,13999,24400000.0,,Sector 150
2290,3.0,Ready to move,2500 ,12000,30000000.0,,Sector 78
2291,3.0,Ready to move,3475 ,12000,41700000.0,,Sector 78
2292,3.0,Ready to move,3020 ,12000,36200000.0,,Sector 78
2293,3.0,Ready to move,3070 ,12000,36800000.0,,Sector 78
2294,4.0,Ready to move,3525 ,12000,42300000.0,,Sector 78
2295,2.0,Under Construction,1137 ,10461,11800000.0,,Sector 150
2296,3.0,Under Construction,1656 ,13000,21500000.0,2 ,Sector 75
2297,3.0,Under Construction,2124 ,13000,27600000.0,3 ,Sector 75
2298,2.0,Under Construction,1155 ,10454,12000000.0,2 ,Sector 150
2299,4.0,Under Construction,2511 ,13000,32600000.0,4 ,Sector 75
2300,3.0,Ready to move,2105 ,13491,28400000.0,3 ,Sector 94
2301,5.0,Ready to move,5300 ,16400,86900000.0,,Sector 128
2302,2.0,Ready to move,915 ,8852,8100000.0,2 ,Sector 78
2303,3.0,Ready to move,1945 ,7490,14500000.0,,Sector 150
2304,3.0,Ready to move,2385 ,7990,19000000.0,,Sector 150
2305,3.0,Ready to move,1760 ,7490,13100000.0,,Sector 150
2306,3.0,Under Construction,3019 ,15000,45200000.0,,Sector 150
2307,3.0,Under Construction,2500 ,14900,37200000.0,3 ,Sector 107
2308,3.0,Under Construction,2160 ,15000,32400000.0,3 ,Sector 150
2309,4.0,Under Construction,2970 ,14900,44200000.0,4 ,Sector 107
2310,3.0,Under Construction,2493 ,15000,37300000.0,3 ,Sector 150
2311,3.0,Under Construction,2575 ,14900,38300000.0,3 ,Sector 107
2312,3.0,Under Construction,2492 ,15000,37300000.0,,Sector 150
2313,4.0,Under Construction,3550 ,14900,52800000.0,,Sector 107
2314,2.0,Under Construction,1515 ,15000,22700000.0,,Sector 150
2315,3.0,Under Construction,2375 ,15000,35600000.0,3 ,Sector 150
2316,2.0,Under Construction,1480 ,15000,22200000.0,2 ,Sector 150
2317,2.0,Under Construction,1587 ,15000,23800000.0,2 ,Sector 150
2318,3.0,Under Construction,2857 ,15000,42800000.0,3 ,Sector 150
2319,3.0,Under Construction,2473 ,15000,37000000.0,3 ,Sector 150
2320,4.0,Under Construction,4700 ,18106,85000000.0,3 ,Sector 144
2321,4.0,Ready to move,3465 ,16400,56800000.0,4 ,Sector 128
2322,4.0,Ready to move,5200 ,16400,85200000.0,,Sector 128
2323,4.0,Ready to move,3325 ,16400,54500000.0,,Sector 128
2324,4.0,Ready to move,3715 ,16400,60900000.0,,Sector 128
2325,4.0,Ready to move,3575 ,16400,58600000.0,,Sector 128
2326,3.0,Ready to move,2700 ,16400,44200000.0,,Sector 128
2327,5.0,Ready to move,4200 ,16400,68800000.0,,Sector 128
2328,3.0,Ready to move,1705 ,4990,8507000.0,3 ,Sector 25 Yamuna Express Way
2329,2.0,Ready to move,1370 ,4990,6836000.0,2 ,Sector 25 Yamuna Express Way
2330,5.0,Ready to move,5250 ,16400,86100000.0,,Sector 128
2331,2.0,Ready to move,1385 ,4990,6911000.0,,Sector 25 Yamuna Express Way
2332,5.0,Ready to move,12500 ,16400,205000000.0,,Sector 128
2333,2.0,Ready to move,1220 ,4990,6087000.0,,Sector 25 Yamuna Express Way
2334,2.0,Ready to move,1185 ,4990,5913000.0,,Sector 25 Yamuna Express Way
2335,5.0,Ready to move,12000 ,16400,196800000.0,,Sector 128
2336,3.0,Ready to move,1715 ,4990,8557000.0,,Sector 25 Yamuna Express Way
2337,2.0,Ready to move,1215 ,4990,6062000.0,,Sector 25 Yamuna Express Way
2338,2.0,Ready to move,1130 ,4990,5638000.0,2 ,Sector 25 Yamuna Express Way
2339,2.0,Ready to move,1225 ,4990,6112000.0,,Sector 25 Yamuna Express Way
2340,2.0,Ready to move,1190 ,4990,5938000.0,,Sector 25 Yamuna Express Way
2341,4.0,Ready to move,3775 ,16400,61900000.0,,Sector 128
2342,2.0,Ready to move,1200 ,4990,5988000.0,2 ,Sector 25 Yamuna Express Way
2343,2.0,Ready to move,1230 ,4990,6137000.0,,Sector 25 Yamuna Express Way
2344,5.0,Ready to move,4770 ,16400,78200000.0,,Sector 128
2345,4.0,Ready to move,5550 ,16400,91000000.0,,Sector 128
2346,5.0,Ready to move,10000 ,16400,164000000.0,,Sector 128
2347,3.0,Ready to move,2850 ,16400,46700000.0,3 ,Sector 128
2348,5.0,Ready to move,5350 ,16400,87700000.0,,Sector 128
2349,5.0,Ready to move,11000 ,16400,180400000.0,,Sector 128
2350,3.0,Under Construction,1500 ,7000,10500000.0,,Sector 25 Yamuna Express Way
2351,3.0,Under Construction,1400 ,7000,9800000.0,,Sector 25 Yamuna Express Way
2352,4.0,Ready to move,3501 ,18500,64700000.0,3 ,Sector 107
2353,3.0,Under Construction,3270 ,19114,62500000.0,3 ,Sector 94
2354,4.0,Ready to move,4482 ,18500,82900000.0,,Sector 107
2355,5.0,Under Construction,5935 ,19477,115600000.0,,Sector 94
2356,5.0,Ready to move,6570 ,18500,121500000.0,,Sector 107
2357,4.0,Under Construction,4315 ,19304,83300000.0,4 ,Sector 94
2358,4.0,Under Construction,3000 ,14900,44700000.0,4 ,Sector 107
2359,4.0,Under Construction,3720 ,14900,55400000.0,,Sector 107
2360,3.0,Under Construction,1370 ,7200,9864000.0,3 ,Sector 144
2361,6.0,Ready to move,7000 ,11285,79000000.0,6 ,Sector 100
2362,1.0,Under Construction,1050 ,7600,7980000.0,1 ,Sector 140A
2363,1.0,Under Construction,803 ,7600,6102000.0,1 ,Sector 140A
2364,6.0,Ready to move,3615 ,8713,31500000.0,6 ,Sector 19
2365,3.0,Ready to move,1400 ,3928,5500000.0,3 ,Sector 44
2366,3.0,Ready to move,1470 ,3401,5000000.0,3 ,Sector 44
2367,2.0,Ready to move,950 ,3157,3000000.0,1 ,Sector 73
2368,2.0,Ready to move,1000 ,3100,3100000.0,1 ,Sector 49
2369,3.0,Ready to move,1450 ,2896,4200000.0,1 ,Sector 73
2370,2.0,Ready to move,950 ,2868,2725000.0,1 ,Sector 73
2371,4.0,Ready to move,9700 ,11855,115000000.0,4 ,Sector 104
2372,3.0,Ready to move,1550 ,10000,15500000.0,3 ,Sector 78
2373,2.0,Ready to move,950 ,3368,3200000.0,2 ,Sector 44
2374,2.0,Ready to move,950 ,3368,3200000.0,1 ,Sector 73
2375,3.0,Ready to move,1735 ,8500,14700000.0,3 ,Sector 107
2376,4.0,Ready to move,3615 ,8298,30000000.0,4 ,Sector 48
2377,4.0,Ready to move,2450 ,8571,21000000.0,4 ,Sector 50
2378,3.0,Ready to move,1550 ,7096,11000000.0,2 ,Sector 62
2379,2.0,Ready to move,1350 ,6296,8500000.0,2 ,Sector 50
2380,3.0,Ready to move,1410 ,3187,4493000.0,,Noida Extensions
2381,3.0,Ready to move,1425 ,3224,4594000.0,,Noida Extensions
2382,2.0,Ready to move,1015 ,3049,3094000.0,,Noida Extensions
2383,2.0,Ready to move,995 ,3111,3095000.0,,Noida Extensions
2384,10.0,Ready to move,9000 ,8888,80000000.0,9 ,Sector 51
2385,2.0,Ready to move,950 ,4052,3850000.0,2 ,Sector 102
2386,3.0,Ready to move,1380 ,4347,6000000.0,3 ,Sector 102
2387,2.0,Ready to move,950 ,4000,3800000.0,2 ,Sector 102
2388,3.0,Ready to move,1380 ,4673,6450000.0,3 ,Sector 102
2389,4.0,Ready to move,1900 ,8421,16000000.0,4 ,Sector 50
2390,3.0,Ready to move,2500 ,5000,12500000.0,4 ,Sector 51
2391,3.0,Ready to move,1750 ,7714,13500000.0,4 ,Sector 34
2392,4.0,Under Construction,3530 ,16997,60000000.0,,Sector 45
2393,3.0,Under Construction,2975 ,16672,49600000.0,,Sector 45
2394,2.0,Ready to move,825 ,6060,5000000.0,2 ,Sector 137
2395,2.0,Ready to move,1195 ,6276,7500000.0,2 ,Sector 137
2396,2.0,Ready to move,1070 ,6074,6500000.0,2 ,Sector 137
2397,2.0,Ready to move,1070 ,6448,6900000.0,2 ,Sector 137
2398,2.0,Ready to move,925 ,6270,5800000.0,2 ,Sector 137
2399,2.0,Ready to move,825 ,6666,5500000.0,2 ,Sector 137
2400,4.0,Ready to move,1900 ,8421,16000000.0,4 ,Sector 50
2401,3.0,Ready to move,2500 ,5000,12500000.0,4 ,Sector 51
2402,3.0,Ready to move,1750 ,7714,13500000.0,4 ,Sector 34
2403,2.0,Ready to move,950 ,4210,4000000.0,2 ,Sector 102
2404,8.0,Ready to move,4500 ,8333,37500000.0,8 ,Sector 122
2405,3.0,Ready to move,1719 ,7853,13500000.0,3 ,Sector 110
2406,4.0,Under Construction,3650 ,11000,40100000.0,,Sector 150
2407,3.0,Under Construction,2850 ,11000,31300000.0,,Sector 150
2408,4.0,Ready to move,3465 ,16400,56800000.0,4 ,Sector 128
2409,4.0,Ready to move,5200 ,16400,85200000.0,,Sector 128
2410,4.0,Ready to move,3325 ,16400,54500000.0,,Sector 128
2411,4.0,Ready to move,3715 ,16400,60900000.0,,Sector 128
2412,4.0,Ready to move,3575 ,16400,58600000.0,,Sector 128
2413,3.0,Ready to move,2700 ,16400,44200000.0,,Sector 128
2414,5.0,Ready to move,4200 ,16400,68800000.0,,Sector 128
2415,5.0,Ready to move,5250 ,16400,86100000.0,,Sector 128
2416,5.0,Ready to move,12500 ,16400,205000000.0,,Sector 128
2417,5.0,Ready to move,12000 ,16400,196800000.0,,Sector 128
2418,4.0,Ready to move,3775 ,16400,61900000.0,,Sector 128
2419,5.0,Ready to move,5300 ,16400,86900000.0,,Sector 128
2420,5.0,Ready to move,11000 ,16400,180400000.0,,Sector 128
2421,3.0,Ready to move,1719 ,7853,13500000.0,3 ,Sector 110
2422,2.0,Ready to move,950 ,4210,4000000.0,2 ,Sector 102
2423,4.0,Under Construction,5022 ,11998,60200000.0,,Sector 79
2424,3.0,Ready to move,1380 ,4492,6200000.0,2 ,Sector 102
2425,2.0,Ready to move,950 ,4157,3950000.0,2 ,Sector 102
2426,8.0,Ready to move,4500 ,8333,37500000.0,8 ,Sector 122
2427,2.0,Ready to move,950 ,3578,3400000.0,2 ,Sector 134
2428,3.0,Ready to move,3195 ,6823,21800000.0,4 ,Sector 108
2429,2.0,Ready to move,1355 ,4132,5600000.0,2 ,Sector 128
2430,2.0,Ready to move,1820 ,5219,9500000.0,2 ,Sector 128
2431,3.0,Ready to move,2181 ,4814,10500000.0,4 ,Sector 93A
2432,3.0,Ready to move,2350 ,5319,12500000.0,3 ,Sector 93A
2433,3.0,Ready to move,1655 ,5558,9200000.0,3 ,Sector 93A
2434,3.0,Ready to move,1920 ,6770,13000000.0,3 ,Sector 93A
2435,4.0,Ready to move,2600 ,5384,14000000.0,4 ,Sector 93A
2436,3.0,Ready to move,2350 ,5319,12500000.0,3 ,Sector 93A
2437,2.0,Ready to move,1000 ,3700,3700000.0,2 ,Sector 44
2438,2.0,Ready to move,1100 ,3181,3500000.0,2 ,Sector 44
2439,3.0,Ready to move,1880 ,9881,18500000.0,3 ,Sector 75
2440,2.0,Under Construction,925 ,3390,3136000.0,2 ,Sector 73
2441,2.0,Under Construction,900 ,3278,2951000.0,2 ,Sector 73
2442,2.0,Under Construction,925 ,3280,3034000.0,2 ,Sector 73
2443,2.0,Under Construction,900 ,3717,3346000.0,2 ,Sector 73
2444,3.0,Ready to move,1250 ,3712,4641000.0,3 ,Sector 73
2445,2.0,Under Construction,925 ,3555,3289000.0,2 ,Sector 73
2446,2.0,Ready to move,900 ,3494,3145000.0,2 ,Sector 73
2447,2.0,Ready to move,1380 ,13478,18600000.0,2 ,Sector 94
2448,2.0,Ready to move,950 ,3684,3500000.0,1 ,Sector 73
2449,4.0,Under Construction,1900 ,10473,19900000.0,4 ,Sector 143B
2450,3.0,Under Construction,1300 ,10000,13000000.0,3 ,Sector 143B
2451,2.0,Ready to move,950 ,3368,3200000.0,2 ,Sector 49
2452,10.0,Ready to move,2690 ,18587,50000000.0,9 ,Sector 50
2453,10.0,Ready to move,3875 ,19354,75000000.0,9 ,Sector 50
2454,3.0,Ready to move,1400 ,4642,6500000.0,3 ,Sector 102
2455,4.0,Ready to move,2720 ,10110,27500000.0,4 ,Sector 79
2456,4.0,Under Construction,6000 ,15833,95000000.0,5 ,Sector 94
2457,4.0,Ready to move,4245 ,9187,39000000.0,7 ,Sector 79
2458,4.0,Under Construction,6000 ,16183,97100000.0,5 ,Sector 94
2459,3.0,Ready to move,2500 ,11000,27500000.0,3 ,Sector 78
2460,2.0,Ready to move,950 ,3684,3500000.0,1 ,Sector 73
2461,2.0,Ready to move,900 ,3494,3145000.0,2 ,Sector 73
2462,2.0,Under Construction,925 ,3555,3289000.0,2 ,Sector 73
2463,3.0,Ready to move,1250 ,3712,4641000.0,3 ,Sector 73
2464,3.0,Under Construction,1400 ,3200,4481000.0,2 ,Sector 73
2465,3.0,Under Construction,1450 ,3033,4399000.0,3 ,Sector 73
2466,2.0,Under Construction,925 ,3390,3136000.0,2 ,Sector 73
2467,2.0,Under Construction,900 ,3278,2951000.0,2 ,Sector 73
2468,2.0,Under Construction,925 ,3280,3034000.0,2 ,Sector 73
2469,2.0,Under Construction,900 ,3717,3346000.0,2 ,Sector 73
2470,4.0,Under Construction,3198 ,14982,47900000.0,,Sector 150
2471,2.0,Under Construction,1305 ,14983,19500000.0,,Sector 150
2472,3.0,Under Construction,3165 ,14983,47400000.0,,Sector 150
2473,3.0,Under Construction,2440 ,14983,36500000.0,,Sector 150
2474,3.0,Under Construction,1947 ,14982,29100000.0,,Sector 150
2475,4.0,Under Construction,2645 ,13500,35700000.0,,Sector 121
2476,4.0,Under Construction,3963 ,14982,59300000.0,,Sector 150
2477,2.0,Under Construction,1558 ,14983,23300000.0,,Sector 150
2478,2.0,Under Construction,1628 ,14983,24300000.0,,Sector 150
2479,3.0,Ready to move,1475 ,7000,10300000.0,,Sector 150
2480,2.0,Ready to move,1260 ,7000,8820000.0,,Sector 150
2481,2.0,Ready to move,1050 ,7000,7350000.0,,Sector 150
2482,3.0,Ready to move,1665 ,7000,11600000.0,3 ,Sector 150
2483,4.0,Under Construction,3131 ,13770,43100000.0,,Sector 43
2484,2.0,Under Construction,1111 ,13770,15200000.0,,Sector 43
2485,3.0,Under Construction,2088 ,13770,28700000.0,3 ,Sector 43
2486,4.0,Under Construction,2259 ,13770,31100000.0,,Sector 43
2487,3.0,Under Construction,2563 ,13770,35200000.0,3 ,Sector 43
2488,2.0,Under Construction,1053 ,13770,14400000.0,,Sector 43
2489,3.0,Under Construction,1614 ,13770,22200000.0,,Sector 43
2490,4.0,Under Construction,3360 ,13770,46200000.0,4 ,Sector 43
2491,5.0,Under Construction,3760 ,13770,51700000.0,5 ,Sector 43
2492,3.0,Under Construction,1525 ,13770,20900000.0,,Sector 43
2493,2.0,Under Construction,1255 ,13770,17200000.0,2 ,Sector 43
2494,2.0,Under Construction,925 ,3512,3249000.0,2 ,Sector 72
2495,3.0,Ready to move,1719 ,9191,15800000.0,3 ,Sector 110
2496,4.0,Ready to move,2794 ,9484,26500000.0,5 ,Sector 110
2497,4.0,Ready to move,2538 ,9850,25000000.0,4 ,Sector 110
2498,3.0,Ready to move,2538 ,10047,25500000.0,4 ,Sector 110
2499,2.0,Ready to move,1380 ,11014,15200000.0,2 ,Sector 94
2500,3.0,Ready to move,2626 ,6169,16200000.0,4 ,Sector 128
2501,2.0,Ready to move,1110 ,5585,6200000.0,2 ,Sector 93
2502,3.0,Ready to move,1250 ,5440,6800000.0,2 ,Sector 82
2503,2.0,Ready to move,950 ,5789,5500000.0,2 ,Sector 82
2504,3.0,Ready to move,1790 ,4581,8200000.0,3 ,Sector 93A
2505,4.0,Ready to move,2494 ,10625,26500000.0,4 ,Sector 110
2506,4.0,Ready to move,2538 ,10086,25600000.0,3 ,Sector 110
2507,,New,203 ,123152,25000000.0,,Sector 145
2508,,Resale,200 ,255000,51000000.0,,Sector 108
2509,,New,3150 ,4222,13200000.0,,Sector 22D Yamuna Expressway
2510,,New,6750 ,4222,28400000.0,,Sector 22D Yamuna Expressway
2511,,New,4500 ,4222,18900000.0,,Sector 22D Yamuna Expressway
2512,,New,2250 ,4222,9499000.0,,Sector 22D Yamuna Expressway
2513,,Resale,300 ,250000,75000000.0,,Sector 108
2514,,New,1350 ,7222,9750000.0,,Sector 22D Yamuna Expressway
2515,,New,1800 ,7222,13000000.0,,Sector 22D Yamuna Expressway
2516,,New,900 ,7222,6500000.0,,Sector 22D Yamuna Expressway
2517,10.0,Ready to move,6456 ,8519,55000000.0,10 ,Sector 30
2518,5.0,Ready to move,8457 ,6503,55000000.0,5 ,Sector 19
2519,3.0,Ready to move,1775 ,23661,42000000.0,3 ,Sector 33
2520,3.0,Ready to move,1550 ,10000,15500000.0,3 ,Sector 78
2521,3.0,Ready to move,1750 ,10000,17500000.0,,Sector 150
2522,3.0,Ready to move,2300 ,10000,23000000.0,,Sector 150
2523,4.0,Ready to move,3200 ,10000,32000000.0,,Sector 150
2524,2.0,Under Construction,1255 ,13770,17200000.0,2 ,Sector 43
2525,3.0,Under Construction,1525 ,13770,20900000.0,,Sector 43
2526,5.0,Under Construction,3760 ,16000,60100000.0,5 ,Sector 43
2527,4.0,Under Construction,3360 ,16000,53700000.0,4 ,Sector 43
2528,3.0,Under Construction,1614 ,13770,22200000.0,,Sector 43
2529,3.0,Under Construction,1700 ,12000,20400000.0,3 ,Sector 150
2530,2.0,Under Construction,1053 ,13770,14400000.0,,Sector 43
2531,4.0,Under Construction,3355 ,13000,43600000.0,,Sector 150
2532,4.0,Under Construction,2259 ,13770,31100000.0,,Sector 43
2533,4.0,Under Construction,6100 ,5147,31400000.0,,Sector 150
2534,3.0,Under Construction,2088 ,13770,28700000.0,3 ,Sector 43
2535,3.0,Under Construction,2555 ,13000,33200000.0,,Sector 150
2536,2.0,Under Construction,1111 ,13770,15200000.0,,Sector 43
2537,4.0,Under Construction,3131 ,16000,50000000.0,,Sector 43
2538,3.0,Under Construction,2563 ,16000,41000000.0,3 ,Sector 43
2539,3.0,Under Construction,2040 ,13000,26500000.0,,Sector 150
2540,3.0,Under Construction,1775 ,14998,26600000.0,2 ,Sector 152
2541,2.0,Under Construction,1350 ,13999,18800000.0,2 ,Sector 152
2542,4.0,Ready to move,3501 ,18500,64700000.0,3 ,Sector 107
2543,4.0,Ready to move,4482 ,18500,82900000.0,,Sector 107
2544,5.0,Ready to move,6570 ,18500,121500000.0,,Sector 107
2545,3.0,Ready to move,1750 ,13999,24400000.0,,Sector 150
2546,4.0,Ready to move,3220 ,13999,45000000.0,,Sector 150
2547,3.0,Ready to move,2190 ,13999,30600000.0,,Sector 150
2548,3.0,Ready to move,2460 ,13999,34400000.0,,Sector 150
2549,4.0,Under Construction,3198 ,12000,38300000.0,4 ,Sector 150
2550,2.0,Under Construction,1969 ,12000,23600000.0,,Sector 150
2551,3.0,Under Construction,2440 ,12000,29200000.0,3 ,Sector 150
2552,3.0,Under Construction,1947 ,12000,23300000.0,3 ,Sector 150
2553,2.0,Under Construction,1625 ,12000,19500000.0,,Sector 150
2554,2.0,Under Construction,1262 ,12000,15100000.0,2 ,Sector 150
2555,1.0,Under Construction,1037 ,12000,12400000.0,,Sector 150
2556,4.0,Under Construction,3027 ,8000,24200000.0,4 ,Sector 150
2557,4.0,Under Construction,2697 ,8000,21500000.0,4 ,Sector 150
2558,3.0,Under Construction,2062 ,7081,14600000.0,,Sector 150
2559,3.0,Under Construction,2330 ,7039,16400000.0,,Sector 150
2560,2.0,Under Construction,1262 ,8000,10000000.0,2 ,Sector 150
2561,4.0,Under Construction,3027 ,8000,24200000.0,4 ,Sector 150
2562,4.0,Under Construction,2697 ,8000,21500000.0,4 ,Sector 150
2563,3.0,Under Construction,2062 ,7081,14600000.0,,Sector 150
2564,3.0,Under Construction,2330 ,7039,16400000.0,,Sector 150
2565,4.0,Ready to move,3710 ,7008,26000000.0,4 ,Sector 128
2566,4.0,Ready to move,3600 ,13888,50000000.0,3 ,Sector 41
2567,3.0,Ready to move,1600 ,6125,9800000.0,,Sector 93
2568,3.0,Ready to move,1655 ,5558,9200000.0,3 ,Sector 93A
2569,3.0,Under Construction,3270 ,19114,62500000.0,3 ,Sector 94
2570,5.0,Under Construction,5935 ,19477,115600000.0,,Sector 94
2571,4.0,Under Construction,4315 ,19304,83300000.0,4 ,Sector 94
2572,3.0,Under Construction,1404 ,7478,10500000.0,1 ,Sector 150
2573,3.0,Under Construction,1404 ,7478,10500000.0,1 ,Sector 150
2574,2.0,Under Construction,1137 ,7499,8527000.0,,Sector 150
2575,2.0,Under Construction,1137 ,7499,8527000.0,,Sector 150
2576,4.0,Under Construction,2050 ,9663,19700000.0,,Sector 150
2577,4.0,Under Construction,2050 ,9663,19700000.0,,Sector 150
2578,3.0,Under Construction,1430 ,10566,15000000.0,,Sector 150
2579,3.0,Under Construction,1430 ,10566,15000000.0,,Sector 150
2580,6.0,Ready to move,4000 ,13750,55000000.0,4 ,Sector 15A
2581,3.0,Under Construction,1404 ,7305,10200000.0,1 ,Sector 150
2582,4.0,Under Construction,3200 ,5350,17100000.0,,Sector 150
2583,3.0,Under Construction,2000 ,5350,10700000.0,,Sector 150
2584,3.0,Under Construction,2300 ,5350,12300000.0,,Sector 150
2585,3.0,Under Construction,1625 ,5350,8693000.0,,Sector 150
2586,3.0,Under Construction,1750 ,5099,8923000.0,,Sector 150
2587,3.0,Under Construction,2190 ,5099,11100000.0,,Sector 150
2588,3.0,Under Construction,1395 ,5099,7113000.0,,Sector 150
2589,3.0,Under Construction,1345 ,13071,17500000.0,3 ,Sector 43
2590,4.0,Under Construction,1753 ,13095,22900000.0,4 ,Sector 43
2591,4.0,Under Construction,1848 ,13095,24200000.0,4 ,Sector 43
2592,5.0,Under Construction,2080 ,13095,27200000.0,5 ,Sector 43
2593,3.0,Under Construction,2563 ,11276,34000000.0,3 ,Sector 43
2594,4.0,Under Construction,3131 ,10316,38000000.0,4 ,Sector 43
2595,4.0,Under Construction,3360 ,10954,43300000.0,4 ,Sector 43
2596,5.0,Under Construction,3760 ,10851,48000000.0,5 ,Sector 43
2597,2.0,Under Construction,1053 ,9605,11900000.0,2 ,Sector 43
2598,2.0,Under Construction,1111 ,10099,13200000.0,2 ,Sector 43
2599,3.0,Under Construction,1525 ,9531,17100000.0,3 ,Sector 43
2600,3.0,Under Construction,1614 ,10269,19500000.0,3 ,Sector 43
2601,3.0,Under Construction,2563 ,11276,34000000.0,3 ,Sector 43
2602,4.0,Under Construction,2259 ,11062,29400000.0,4 ,Sector 43
2603,4.0,Under Construction,3131 ,10316,38000000.0,4 ,Sector 43
2604,3.0,Under Construction,1760 ,5454,9600000.0,3 ,Sector 150
2605,4.0,Under Construction,1927 ,7894,16900000.0,4 ,Sector 150
2606,4.0,Under Construction,3007 ,5440,19300000.0,4 ,Sector 150
2607,2.0,Ready to move,1000 ,3200,3200000.0,2 ,Sector 73
2608,3.0,Ready to move,1500 ,3066,4600000.0,2 ,Sector 73
2609,3.0,Ready to move,1759 ,12507,22000000.0,3 ,Sector 104
2610,3.0,Ready to move,1660 ,5421,9000000.0,3 ,Sector 137
2611,4.0,Ready to move,1968 ,8638,17000000.0,4 ,Sector 137
2612,3.0,Ready to move,1850 ,8108,15000000.0,3 ,Sector 45
2613,2.0,Ready to move,1380 ,11014,15200000.0,2 ,Sector 94
2614,3.0,Ready to move,2095 ,10739,22500000.0,3 ,Sector 150
2615,3.0,Under Construction,1907 ,9701,18500000.0,4 ,Sector 150
2616,3.0,Ready to move,1510 ,8013,12100000.0,3 ,Sector 78
2617,3.0,Ready to move,3047 ,15920,48500000.0,4 ,Sector 128
2618,3.0,Ready to move,1455 ,7216,10500000.0,3 ,Sector 76
2619,3.0,Ready to move,1510 ,8013,12100000.0,3 ,Sector 143
2620,3.0,Ready to move,2548 ,14128,36000000.0,4 ,Sector 50
2621,3.0,Ready to move,2500 ,13000,32500000.0,3 ,Sector 78
2622,4.0,Ready to move,3850 ,6493,25000000.0,5 ,Sector 22D Yamuna Expressway
2623,3.0,Ready to move,1850 ,8378,15500000.0,3 ,Sector 45
2624,4.0,Ready to move,2511 ,15332,38500000.0,5 ,Sector 75
2625,3.0,Ready to move,1350 ,3703,5000000.0,2 ,Sector 104
2626,2.0,Ready to move,950 ,2947,2800000.0,2 ,Sector 73
2627,2.0,Ready to move,955 ,3979,3800000.0,2 ,Sector 104
2628,2.0,Ready to move,950 ,3052,2900000.0,2 ,Sector 73
2629,2.0,Ready to move,1085 ,8755,9500000.0,2 ,Sector 168
2630,3.0,Ready to move,2500 ,18000,45000000.0,3 ,Sector 107
2631,4.0,Under Construction,1821 ,20593,37500000.0,5 ,Sector 150
2632,3.0,Ready to move,1405 ,7473,10500000.0,3 ,Sector 107
2633,3.0,Ready to move,1401 ,12491,17500000.0,3 ,Sector 137
2634,3.0,Ready to move,1695 ,6194,10500000.0,2 ,Sector 137
2635,2.0,Ready to move,1135 ,11013,12500000.0,2 ,Sector 77
2636,3.0,Ready to move,2250 ,15333,34500000.0,2 ,Sector 107
2637,3.0,Ready to move,1340 ,7835,10500000.0,2 ,Sector 143
2638,2.0,Ready to move,1025 ,11707,12000000.0,2 ,Sector 144
2639,2.0,Ready to move,950 ,4000,3800000.0,2 ,Sector 104
2640,2.0,Ready to move,955 ,3979,3800000.0,2 ,Sector 104
2641,3.0,Under Construction,2304 ,11501,26500000.0,4 ,Sector 117
2642,2.0,Ready to move,825 ,6727,5550000.0,2 ,Sector 137
2643,3.0,Ready to move,3940 ,13071,51500000.0,4 ,Sector 107
2644,5.0,Under Construction,3756 ,19169,72000000.0,5 ,Sector 43
2645,4.0,Under Construction,3131 ,20121,63000000.0,4 ,Sector 43
2646,3.0,Under Construction,2089 ,16754,35000000.0,3 ,Sector 43
2647,3.0,Ready to move,2538 ,9259,23500000.0,3 ,Sector 110
2648,3.0,Under Construction,1528 ,7198,11000000.0,2 ,Sector 110
2649,3.0,Under Construction,1524 ,15748,24000000.0,2 ,Sector 43
2650,2.0,Under Construction,1111 ,14851,16500000.0,2 ,Sector 43
2651,5.0,Under Construction,6500 ,13846,90000000.0,6 ,Sector 128
2652,3.0,Ready to move,2111 ,9474,20000000.0,3 ,Sector 110
2653,1.0,Ready to move,595 ,12941,7700000.0,1 ,Sector 94
2654,1.0,Ready to move,630 ,11428,7200000.0,1 ,Sector 94
2655,1.0,Ready to move,595 ,13445,8000000.0,1 ,Sector 94
2656,1.0,Ready to move,595 ,12436,7400000.0,1 ,Sector 94
2657,2.0,Ready to move,1050 ,4000,4200000.0,2 ,Sector 49
2658,1.0,Ready to move,850 ,3294,2800000.0,2 ,Sector 49
2659,1.0,Ready to move,630 ,13492,8500000.0,1 ,Sector 94
2660,2.0,Ready to move,1000 ,4400,4400000.0,2 ,Sector 49
2661,2.0,Ready to move,1150 ,3739,4300000.0,2 ,Sector 49
2662,2.0,Ready to move,950 ,4315,4100000.0,2 ,Sector 49
2663,2.0,Ready to move,900 ,4555,4100000.0,2 ,Sector 49
2664,1.0,Ready to move,408 ,8823,3600000.0,1 ,Sector 168
2665,3.0,Under Construction,1400 ,6785,9500000.0,3 ,Sector 127
2666,3.0,Ready to move,1320 ,8939,11800000.0,2 ,Sector 78
2667,2.0,Ready to move,1150 ,8626,9920000.0,2 ,Sector 76
2668,2.0,Ready to move,1150 ,8565,9850000.0,2 ,Sector 76
2669,2.0,Ready to move,1080 ,8726,9425000.0,2 ,Sector 78
2670,3.0,Ready to move,1320 ,9090,12000000.0,2 ,Sector 78
2671,5.0,Ready to move,5700 ,12280,70000000.0,6 ,Sector 128
2672,6.0,Ready to move,4000 ,11250,45000000.0,4 ,Sector 133
2673,4.0,Ready to move,3750 ,11600,43500000.0,4 ,Sector 128
2674,2.0,Ready to move,2100 ,12380,26000000.0,3 ,Sector 128
2675,4.0,Ready to move,3700 ,14864,55000000.0,4 ,Sector 128
2676,2.0,Ready to move,950 ,6947,6600000.0,2 ,Sector 134
2677,4.0,Ready to move,2800 ,13392,37500000.0,4 ,Sector 128
2678,4.0,Ready to move,3700 ,12162,45000000.0,4 ,Sector 128
2679,4.0,Ready to move,3750 ,11733,44000000.0,4 ,Sector 128
2680,3.0,Ready to move,1656 ,12162,20100000.0,4 ,Sector 75
2681,3.0,Ready to move,1656 ,12801,21200000.0,4 ,Sector 75
2682,3.0,Ready to move,1656 ,12802,21200000.0,4 ,Sector 75
2683,3.0,Ready to move,1656 ,12560,20800000.0,4 ,Sector 75
2684,3.0,Under Construction,1719 ,8726,15000000.0,4 ,Sector 110
2685,3.0,Ready to move,1528 ,9162,14000000.0,2 ,Sector 110
2686,3.0,Ready to move,1656 ,12681,21000000.0,4 ,Sector 75
2687,1.0,Ready to move,595 ,12941,7700000.0,1 ,Sector 94
2688,1.0,Ready to move,630 ,11428,7200000.0,1 ,Sector 94
2689,1.0,Ready to move,595 ,13445,8000000.0,1 ,Sector 94
2690,1.0,Ready to move,595 ,12436,7400000.0,1 ,Sector 94
2691,2.0,Ready to move,1050 ,4000,4200000.0,2 ,Sector 49
2692,2.0,Ready to move,1000 ,4200,4200000.0,2 ,Sector 49
2693,1.0,Ready to move,850 ,3294,2800000.0,2 ,Sector 49
2694,1.0,Ready to move,630 ,13492,8500000.0,1 ,Sector 94
2695,2.0,Ready to move,1000 ,4400,4400000.0,2 ,Sector 49
2696,2.0,Ready to move,1150 ,3739,4300000.0,2 ,Sector 49
2697,2.0,Ready to move,950 ,4315,4100000.0,2 ,Sector 49
2698,2.0,Ready to move,1100 ,4000,4400000.0,2 ,Sector 49
2699,2.0,Ready to move,1100 ,3818,4200000.0,2 ,Sector 49
2700,3.0,Ready to move,1719 ,8144,14000000.0,3 ,Sector 110
2701,3.0,Ready to move,1436 ,6963,10000000.0,3 ,Sector 110
2702,3.0,Ready to move,1528 ,7198,11000000.0,2 ,Sector 110
2703,3.0,Ready to move,1774 ,10992,19500000.0,3 ,Sector 100
2704,2.0,Ready to move,1462 ,7181,10500000.0,2 ,Sector 110
2705,4.0,Ready to move,2085 ,9592,20000000.0,4 ,Sector 110
2706,4.0,Ready to move,2794 ,10379,29000000.0,4 ,Sector 110
2707,3.0,Ready to move,2012 ,11928,24000000.0,3 ,Sector 100
2708,4.0,Ready to move,2796 ,11087,31000000.0,4 ,Sector 110
2709,4.0,Ready to move,2435 ,9856,24000000.0,4 ,Sector 100
2710,4.0,Ready to move,2111 ,9947,21000000.0,4 ,Sector 110
2711,3.0,Ready to move,1650 ,12727,21000000.0,3 ,Sector 100
2712,4.0,Ready to move,2012 ,11679,23500000.0,3 ,Sector 100
2713,3.0,Ready to move,1420 ,10915,15500000.0,2 ,Sector 100
2714,3.0,Ready to move,1528 ,7526,11500000.0,2 ,Sector 110
2715,3.0,Ready to move,1719 ,9016,15500000.0,3 ,Sector 110
2716,3.0,Ready to move,1398 ,9656,13500000.0,2 ,Sector 100
2717,2.0,Ready to move,1180 ,10169,12000000.0,2 ,Sector 100
2718,3.0,Ready to move,1528 ,7198,11000000.0,2 ,Sector 110
2719,2.0,Ready to move,1208 ,10347,12500000.0,3 ,Sector 100
2720,2.0,Ready to move,1850 ,13513,25000000.0,3 ,Sector 128
2721,3.0,Ready to move,1856 ,13657,25300000.0,3 ,Sector 121
2722,2.0,Ready to move,1380 ,10144,14000000.0,2 ,Sector 79
2723,2.0,Under Construction,1053 ,14719,15500000.0,2 ,Sector 43
2724,2.0,Ready to move,1398 ,9298,13000000.0,2 ,Sector 100
2725,2.0,Under Construction,1255 ,16733,21000000.0,2 ,Sector 43
2726,4.0,Under Construction,6500 ,20000,130000000.0,5 ,Sector 107
2727,3.0,Ready to move,1656 ,12162,20100000.0,4 ,Sector 75
2728,3.0,Ready to move,1656 ,12801,21200000.0,4 ,Sector 75
2729,3.0,Under Construction,1719 ,8726,15000000.0,4 ,Sector 110
2730,3.0,Ready to move,1528 ,9162,14000000.0,2 ,Sector 110
2731,3.0,Ready to move,1656 ,12802,21200000.0,4 ,Sector 75
2732,3.0,Ready to move,1656 ,12560,20800000.0,4 ,Sector 75
2733,3.0,Ready to move,1656 ,12681,21000000.0,4 ,Sector 75
2734,2.0,Ready to move,1000 ,4200,4200000.0,2 ,Sector 49
2735,2.0,Ready to move,1100 ,4000,4400000.0,2 ,Sector 49
2736,2.0,Ready to move,1100 ,3818,4200000.0,2 ,Sector 49
2737,2.0,Ready to move,800 ,5500,4400000.0,2 ,Sector 49
2738,3.0,Under Construction,2700 ,14814,40000000.0,4 ,Sector 128
2739,2.0,Under Construction,950 ,4526,4300000.0,2 ,Sector 49
2740,3.0,Ready to move,1700 ,7352,12500000.0,3 ,Sector 129
2741,2.0,Under Construction,1265 ,12252,15500000.0,2 ,Sector 150
2742,4.0,Ready to move,4300 ,18604,80000000.0,4 ,Sector 128
2743,3.0,Ready to move,1690 ,7100,12000000.0,3 ,Sector 129
2744,2.0,Ready to move,2150 ,11627,25000000.0,3 ,Sector 128
2745,4.0,Ready to move,3750 ,11466,43000000.0,5 ,Sector 128
2746,3.0,Ready to move,1650 ,9090,15000000.0,3 ,Sector 129
2747,3.0,Ready to move,2640 ,14393,38000000.0,3 ,Sector 128
2748,2.0,Ready to move,2080 ,11778,24500000.0,3 ,Sector 128
2749,4.0,Under Construction,3360 ,17857,60000000.0,5 ,Sector 43
2750,3.0,Ready to move,1690 ,8875,15000000.0,4 ,Sector 134
2751,5.0,Ready to move,5200 ,12980,67500000.0,5 ,Sector 128
2752,3.0,Under Construction,2062 ,11639,24000000.0,4 ,Sector 150
2753,3.0,Under Construction,1528 ,7198,11000000.0,2 ,Sector 110
2754,3.0,Under Construction,1524 ,15748,24000000.0,2 ,Sector 43
2755,3.0,Ready to move,3940 ,13071,51500000.0,4 ,Sector 107
2756,5.0,Under Construction,3756 ,19169,72000000.0,5 ,Sector 43
2757,4.0,Under Construction,3131 ,20121,63000000.0,4 ,Sector 43
2758,3.0,Under Construction,2089 ,16754,35000000.0,3 ,Sector 43
2759,3.0,Ready to move,2538 ,9259,23500000.0,3 ,Sector 110
2760,3.0,Ready to move,2000 ,7000,14000000.0,3 ,Noida Extensions
2761,2.0,Ready to move,900 ,4555,4100000.0,2 ,Sector 49
2762,1.0,Ready to move,408 ,8823,3600000.0,1 ,Sector 168
2763,2.0,Under Construction,950 ,4526,4300000.0,2 ,Sector 49
2764,4.0,Under Construction,2038 ,6974,14200000.0,4 ,Noida Extensions
2765,3.0,Ready to move,1510 ,7947,12000000.0,2 ,Sector 78
2766,3.0,Under Construction,2304 ,11501,26500000.0,4 ,Sector 117
2767,2.0,Ready to move,825 ,6727,5550000.0,2 ,Sector 137
2768,3.0,Under Construction,1400 ,6785,9500000.0,3 ,Sector 127
2769,2.0,Ready to move,950 ,7052,6700000.0,2 ,Sector 120
2770,3.0,Ready to move,2500 ,14000,35000000.0,3 ,Sector 78
2771,3.0,Ready to move,2500 ,12960,32400000.0,4 ,Sector 75
2772,3.0,Under Construction,2500 ,12000,30000000.0,3 ,Sector 107
2773,3.0,Ready to move,2105 ,12494,26300000.0,3 ,Sector 94
2774,2.0,Ready to move,1380 ,13478,18600000.0,2 ,Sector 94
2775,,Ready to move,615 ,13960,8586000.0,1 ,Sector 94
2776,,Ready to move,595 ,13921,8283000.0,1 ,Sector 94
2777,4.0,Under Construction,3550 ,12000,42600000.0,4 ,Sector 107
2778,4.0,Ready to move,3650 ,10493,38300000.0,4 ,Sector 128
2779,3.0,Ready to move,2650 ,14000,37100000.0,3 ,Sector 128
2780,10.0,Ready to move,15000 ,5833,87500000.0,10 ,Sector 51
2781,3.0,Ready to move,5000 ,8500,42500000.0,4 ,Sector 105
2782,3.0,Ready to move,1365 ,7326,10000000.0,3 ,Sector 134
2783,2.0,Ready to move,1050 ,3428,3600000.0,2 ,Sector 73
2784,5.0,Under Construction,2080 ,20805,50800000.0,5 ,Sector 43
2785,4.0,Under Construction,1848 ,20236,43900000.0,4 ,Sector 43
2786,4.0,Under Construction,1753 ,19681,40500000.0,4 ,Sector 43
2787,3.0,Under Construction,1345 ,23501,37100000.0,3 ,Sector 43
2788,3.0,Under Construction,1249 ,22817,33500000.0,3 ,Sector 43
2789,3.0,Under Construction,1248 ,22817,33400000.0,3 ,Sector 43
2790,4.0,Under Construction,3360 ,11130,44000000.0,4 ,Sector 43
2791,5.0,Under Construction,3760 ,10851,48000000.0,5 ,Sector 43
2792,3.0,Under Construction,2088 ,11195,27500000.0,3 ,Sector 43
2793,2.0,Under Construction,1255 ,10837,16000000.0,2 ,Sector 43
2794,3.0,Under Construction,2088 ,11195,27500000.0,3 ,Sector 43
2795,2.0,Under Construction,1255 ,10837,16000000.0,2 ,Sector 43
2796,2.0,Under Construction,1266 ,6839,12000000.0,2 ,Sector 150
2797,4.0,Under Construction,3963 ,5299,35000000.0,4 ,Sector 150
2798,4.0,Under Construction,3198 ,6223,30000000.0,4 ,Sector 150
2799,3.0,Under Construction,3165 ,4897,23000000.0,3 ,Sector 150
2800,3.0,Under Construction,2440 ,6189,27500000.0,3 ,Sector 150
2801,3.0,Under Construction,1947 ,6112,18500000.0,3 ,Sector 150
2802,2.0,Under Construction,1628 ,6572,12500000.0,2 ,Sector 150
2803,2.0,Under Construction,1558 ,6839,13700000.0,2 ,Sector 150
2804,2.0,Under Construction,1305 ,6839,11500000.0,2 ,Sector 150
2805,2.0,Under Construction,1264 ,6487,8199000.0,2 ,Sector 150
2806,4.0,Under Construction,3027 ,5026,17900000.0,4 ,Sector 150
2807,3.0,Under Construction,1549 ,4335,7900000.0,3 ,Sector 150
2808,4.0,Ready to move,4085 ,6609,27000000.0,5 ,Sector 45
2809,,Resale,3228 ,6753,21800000.0,,Sector 18
2810,,Resale,1800 ,6666,12000000.0,,Sector 22D Yamuna Expressway
2811,,Resale,900 ,6666,6000000.0,,Sector 22D Yamuna Expressway
2812,,Resale,239 ,159832,38200000.0,,Sector 133
2813,,New,9072 ,683,6200000.0,,Sector 135
2814,,New,9072 ,617,5600000.0,,Sector 135
2815,3.0,Ready to move,1540 ,7012,10700000.0,3 ,Sector 76
2816,3.0,Ready to move,1652 ,7566,12500000.0,4 ,Sector 137
2817,3.0,Ready to move,1540 ,7012,10800000.0,3 ,Sector 76
2818,4.0,Under Construction,3355 ,5216,17500000.0,4 ,Sector 150
2819,3.0,Under Construction,2555 ,5283,13500000.0,3 ,Sector 150
2820,,Resale,36000 ,705,25400000.0,,Nagli Bahrampur
2821,,New,900 ,3300,2970000.0,,Yeida
2822,,New,1080 ,3322,3588000.0,,Yeida
2823,,New,1170 ,3162,3700000.0,,Yeida
2824,,New,1350 ,3333,4500000.0,,Yeida
2825,,New,1710 ,3322,5681000.0,,Yeida
2826,,New,1350 ,3322,4484000.0,,Yeida
2827,,New,990 ,3131,3100000.0,,Yeida
2828,,New,1125 ,3322,3737000.0,,Yeida
2829,,New,180 ,29900,5382000.0,,Yeida
2830,,New,900 ,3333,3000000.0,,Yeida
2831,,Resale,300 ,276666,83000000.0,,Sector 93B
2832,,Resale,200 ,237500,47500000.0,,Sector 30
2833,,New,1080 ,3611,3900000.0,,Yeida
2834,,New,990 ,3611,3575000.0,,Yeida
2835,,New,810 ,3333,2700000.0,,Yeida
2836,,New,900 ,3322,2990000.0,,Yeida
2837,,New,720 ,3333,2400000.0,,Yeida
2838,,New,990 ,3333,3300000.0,,Yeida
2839,,New,1710 ,3333,5700000.0,,Yeida
2840,,New,1260 ,3333,4200000.0,,Yeida
2841,4.0,Ready to move,3600 ,7500,27000000.0,4 ,Sector 45
2842,4.0,Ready to move,3200 ,9375,30000000.0,5 ,Sector 45
2843,4.0,Ready to move,4300 ,6976,30000000.0,5 ,Sector 45
2844,4.0,Ready to move,2950 ,5457,16100000.0,4 ,Sector 150
2845,2.0,Ready to move,1425 ,5473,7800000.0,2 ,Sector 150
2846,3.0,Ready to move,1735 ,7780,13500000.0,3 ,Sector 107
2847,2.0,Ready to move,1135 ,8722,9900000.0,2 ,Sector 77
2848,2.0,Ready to move,1115 ,9775,10900000.0,2 ,Sector 137
2849,3.0,Under Construction,1700 ,5058,8600000.0,3 ,Sector 150
2850,2.0,Ready to move,825 ,4242,3500000.0,2 ,Sector 137
2851,3.0,Ready to move,1900 ,11315,21500000.0,3 ,Sector 78
2852,4.0,Ready to move,1968 ,7621,15000000.0,4 ,Sector 137
2853,2.0,Ready to move,1135 ,8634,9800000.0,2 ,Sector 77
2854,4.0,Ready to move,3530 ,6515,23000000.0,5 ,Sector 45
2855,5.0,Ready to move,4490 ,7015,31500000.0,5 ,Sector 45
2856,,Resale,300 ,46666,14000000.0,,Yeida
2857,3.0,Ready to move,1455 ,7422,10800000.0,3 ,Sector 76
2858,3.0,Ready to move,1455 ,7491,10900000.0,3 ,Sector 76
2859,3.0,Ready to move,2385 ,5450,13000000.0,3 ,Sector 150
2860,2.0,Ready to move,915 ,8852,8100000.0,2 ,Sector 78
2861,3.0,Ready to move,1380 ,4637,6400000.0,3 ,Sector 102
2862,3.0,Ready to move,1600 ,2843,4550000.0,3 ,Sector 49
2863,3.0,Ready to move,1850 ,8378,15500000.0,3 ,Sector 45
2864,3.0,Ready to move,1420 ,7746,11000000.0,2 ,Sector 76
2865,4.0,Ready to move,3300 ,12878,42500000.0,5 ,Sector 75
2866,4.0,Ready to move,3325 ,13533,45000000.0,4 ,Sector 128
2867,4.0,Ready to move,3030 ,13036,39500000.0,5 ,Sector 75
2868,4.0,Ready to move,3030 ,13201,40000000.0,5 ,Sector 75
2869,3.0,Ready to move,2500 ,14000,35000000.0,3 ,Sector 78
2870,3.0,Ready to move,2500 ,13000,32500000.0,4 ,Sector 75
2871,4.0,Ready to move,3325 ,13533,45000000.0,5 ,Sector 128
2872,4.0,Under Construction,3325 ,9000,29900000.0,4 ,Sector 128
2873,3.0,Under Construction,2700 ,8000,21600000.0,3 ,Sector 128
2874,3.0,Ready to move,1750 ,7142,12500000.0,3 ,Sector-52 Noida
2875,1.0,Ready to move,550 ,2500,1375000.0,1 ,Sector 73
2876,3.0,Under Construction,2000 ,10500,21000000.0,3 ,Sector 150
2877,3.0,Ready to move,1475 ,7500,11000000.0,3 ,Sector 144
2878,3.0,Ready to move,1750 ,5714,10000000.0,3 ,Sector 75
2879,,Under Construction,1050 ,9523,10000000.0,1 ,Sector 62
2880,3.0,Ready to move,1425 ,5964,8500000.0,3 ,Sector 121
2881,3.0,Ready to move,1325 ,6415,8500000.0,2 ,Sector 75
2882,3.0,Ready to move,1950 ,7179,14000000.0,4 ,Sector 137
2883,3.0,Ready to move,1435 ,5923,8500000.0,2 ,Sector 137
2884,3.0,Ready to move,1430 ,3636,5200000.0,3 ,Sector 151
2885,3.0,Ready to move,1550 ,6451,10000000.0,3 ,Sector 78
2886,3.0,Ready to move,1545 ,4854,7500000.0,3 ,Sector 76
2887,3.0,Ready to move,1550 ,5161,8000000.0,3 ,Sector 78
2888,2.0,Ready to move,930 ,4838,4500000.0,2 ,Sector 74
2889,4.0,Ready to move,3370 ,7418,25000000.0,3 ,Sector 78
2890,3.0,Ready to move,1730 ,6647,11500000.0,3 ,Sector 79
2891,3.0,Ready to move,1660 ,7228,12000000.0,3 ,Sector 75
2892,3.0,Ready to move,1545 ,5825,9000000.0,2 ,Sector 74
2893,3.0,Ready to move,1550 ,5806,9000000.0,3 ,Sector 78
2894,3.0,Ready to move,1545 ,5825,9000000.0,2 ,Sector 74
2895,3.0,Ready to move,1550 ,6129,9500000.0,3 ,Sector 78
2896,3.0,Ready to move,2175 ,6896,15000000.0,3 ,Sector 100
2897,2.0,Under Construction,975 ,6153,6000000.0,2 ,Sector 131
2898,4.0,Ready to move,4874 ,12955,63100000.0,3 ,Sector 108
2899,3.0,Ready to move,3302 ,12955,42700000.0,2 ,Sector 108
2900,4.0,Ready to move,3996 ,12955,51700000.0,3 ,Sector 108
2901,3.0,Under Construction,2062 ,9699,20000000.0,3 ,Sector 150
2902,2.0,Under Construction,1137 ,7475,8500000.0,2 ,Sector 150
2903,5.0,Ready to move,8262 ,714,5900000.0,4 ,Jewar Toll Plaza
2904,3.0,Ready to move,1765 ,4419,7800000.0,3 ,Sector 93
2905,3.0,Ready to move,2050 ,3101,6358000.0,3 ,Sector 137
2906,3.0,Ready to move,1360 ,4632,6300000.0,2 ,Sector 137
2907,3.0,Ready to move,1685 ,3245,5468000.0,3 ,Sector 162
2908,3.0,Under Construction,2555 ,2410,6158000.0,4 ,Sector 25 Yamuna Express Way
2909,3.0,Ready to move,1862 ,2945,5485000.0,3 ,Yeida
2910,3.0,Ready to move,1765 ,4175,7369000.0,3 ,Sector 93
2911,4.0,Ready to move,3700 ,2158,7985000.0,4 ,Sector 61
2912,2.0,Ready to move,850 ,5470,4650000.0,2 ,Sector 121
2913,3.0,Ready to move,1560 ,5576,8700000.0,3 ,Sector 120
2914,4.0,Ready to move,2250 ,3983,8963000.0,4 ,Sector 61
2915,3.0,Under Construction,1404 ,8190,11500000.0,2 ,Sector 150
2916,2.0,Under Construction,1545 ,9708,15000000.0,3 ,Sector 150
2917,3.0,Under Construction,1365 ,5000,6825000.0,3 ,Sector 107
2918,3.0,Under Construction,1450 ,4500,6525000.0,3 ,Sector 107
2919,3.0,Under Construction,1490 ,4500,6705000.0,3 ,Sector 107
2920,3.0,Ready to move,1765 ,4175,7369000.0,3 ,Sector 93
2921,4.0,Ready to move,3700 ,2158,7985000.0,4 ,Sector 61
2922,2.0,Ready to move,850 ,5470,4650000.0,2 ,Sector 121
2923,3.0,Ready to move,1560 ,5576,8700000.0,3 ,Sector 120
2924,4.0,Ready to move,2250 ,3983,8963000.0,4 ,Sector 61
2925,3.0,Under Construction,1365 ,5000,6825000.0,3 ,Sector 107
2926,3.0,Under Construction,1450 ,4500,6525000.0,3 ,Sector 107
2927,3.0,Under Construction,1490 ,4500,6705000.0,3 ,Sector 107
2928,3.0,Ready to move,1640 ,9990,16300000.0,,Sector 77
2929,3.0,Ready to move,2300 ,9990,22900000.0,,Sector 77
2930,3.0,Ready to move,1910 ,9990,19000000.0,,Sector 77
2931,3.0,Ready to move,1650 ,9990,16400000.0,,Sector 77
2932,5.0,Ready to move,4200 ,9990,41900000.0,,Sector 77
2933,3.0,Ready to move,2250 ,9990,22400000.0,,Sector 77
2934,3.0,Ready to move,1890 ,9990,18800000.0,,Sector 77
2935,5.0,Ready to move,3600 ,9990,35900000.0,,Sector 77
2936,2.0,Ready to move,1100 ,9990,10900000.0,2 ,Sector 77
2937,3.0,Ready to move,2270 ,9990,22600000.0,,Sector 77
2938,2.0,Ready to move,995 ,9990,9940000.0,,Sector 77
2939,3.0,Ready to move,2750 ,9990,27400000.0,,Sector 77
2940,3.0,Ready to move,2230 ,5750,12800000.0,3 ,Sector 168
2941,1.0,Ready to move,685 ,5800,3973000.0,1 ,Sector 168
2942,4.0,Ready to move,3500 ,5750,20100000.0,3 ,Sector 168
2943,1.0,Ready to move,500 ,6075,3037000.0,,Sector 168
2944,4.0,Ready to move,4500 ,6075,27300000.0,,Sector 168
2945,3.0,Ready to move,2185 ,5750,12500000.0,3 ,Sector 168
2946,4.0,Ready to move,2250 ,6075,13600000.0,,Sector 168
2947,4.0,Ready to move,2700 ,5750,15500000.0,4 ,Sector 168
2948,2.0,Ready to move,959 ,6075,5825000.0,,Sector 168
2949,,Under Construction,650 ,7299,4744000.0,1 ,Sector 140A
2950,1.0,Ready to move,575 ,5500,3162000.0,,Sector 168
2951,3.0,Ready to move,1750 ,5750,10000000.0,2 ,Sector 168
2952,,Under Construction,800 ,7499,5999000.0,1 ,Sector 140A
2953,2.0,Ready to move,1335 ,5500,7342000.0,2 ,Sector 168
2954,4.0,Under Construction,3000 ,14900,44700000.0,4 ,Sector 107
2955,2.0,Ready to move,1200 ,6075,7290000.0,,Sector 168
2956,3.0,Ready to move,1415 ,5500,7782000.0,,Sector 168
2957,4.0,Under Construction,3720 ,14900,55400000.0,,Sector 107
2958,5.0,Ready to move,5500 ,6075,33400000.0,,Sector 168
2959,1.0,Ready to move,615 ,5800,3567000.0,1 ,Sector 168
2960,4.0,Under Construction,1821 ,24032,43700000.0,4 ,Sector 150
2961,4.0,Under Construction,1819 ,39727,72200000.0,,Sector 150
2962,4.0,Under Construction,1618 ,24032,38800000.0,4 ,Sector 150
2963,3.0,Under Construction,1356 ,41294,55900000.0,,Sector 150
2964,3.0,Under Construction,1223 ,24032,29300000.0,,Sector 150
2965,3.0,Under Construction,1361 ,24032,32700000.0,,Sector 150
2966,2.0,Under Construction,893 ,24032,21400000.0,,Sector 150
2967,4.0,Under Construction,3198 ,14982,47900000.0,,Sector 150
2968,4.0,Under Construction,2164 ,24032,52000000.0,,Sector 150
2969,2.0,Under Construction,1305 ,14983,19500000.0,,Sector 150
2970,3.0,Under Construction,1227 ,40386,49500000.0,,Sector 150
2971,3.0,Under Construction,3165 ,14983,47400000.0,,Sector 150
2972,4.0,Under Construction,1615 ,38689,62400000.0,,Sector 150
2973,3.0,Under Construction,1947 ,14982,29100000.0,,Sector 150
2974,4.0,Under Construction,3963 ,14982,59300000.0,,Sector 150
2975,2.0,Under Construction,745 ,24032,17900000.0,,Sector 150
2976,2.0,Ready to move,1092 ,5880,6420000.0,,Sector 120
2977,4.0,Under Construction,3300 ,13219,43600000.0,3 ,Sector 150
2978,3.0,Under Construction,2350 ,13308,31200000.0,3 ,Sector 150
2979,2.0,Under Construction,1558 ,14983,23300000.0,,Sector 150
2980,3.0,Under Construction,978 ,32753,32000000.0,,Sector 146
2981,2.0,Under Construction,831 ,32742,27200000.0,,Sector 146
2982,4.0,Under Construction,1714 ,62055,106300000.0,,Sector 146
2983,3.0,Ready to move,1750 ,13999,24400000.0,,Sector 150
2984,4.0,Ready to move,3220 ,13999,45000000.0,,Sector 150
2985,3.0,Ready to move,2190 ,13999,30600000.0,,Sector 150
2986,3.0,Under Construction,2555 ,13000,33200000.0,,Sector 150
2987,3.0,Ready to move,2460 ,13999,34400000.0,,Sector 150
2988,4.0,Under Construction,6100 ,5147,31400000.0,,Sector 150
2989,3.0,Under Construction,2040 ,13000,26500000.0,,Sector 150
2990,4.0,Under Construction,3355 ,13000,43600000.0,,Sector 150
2991,3.0,Under Construction,1700 ,12000,20400000.0,3 ,Sector 150
2992,4.0,Under Construction,3200 ,12226,39100000.0,,Sector 152
2993,3.0,Under Construction,2350 ,12308,28900000.0,,Sector 152
2994,3.0,Under Construction,1850 ,12391,22900000.0,3 ,Sector 152
2995,3.0,Under Construction,978 ,32753,32000000.0,,Sector 146
2996,2.0,Under Construction,831 ,32742,27200000.0,,Sector 146
2997,4.0,Under Construction,1714 ,62055,106300000.0,,Sector 146
2998,3.0,Under Construction,3019 ,15000,45200000.0,,Sector 150
2999,3.0,Under Construction,2160 ,15000,32400000.0,3 ,Sector 150
3000,4.0,Ready to move,3716 ,5200,19300000.0,4 ,Sector 150
3001,3.0,Ready to move,1858 ,5200,9661000.0,3 ,Sector 150
3002,3.0,Ready to move,1300 ,3600,4680000.0,2 ,Sector 104
3003,3.0,Ready to move,1962 ,5200,10200000.0,3 ,Sector 150
3004,5.0,Ready to move,4770 ,16400,78200000.0,,Sector 128
3005,4.0,Under Construction,6100 ,25000,152500000.0,,Sector 94
3006,3.0,Ready to move,2385 ,7990,19000000.0,,Sector 150
3007,2.0,Ready to move,1100 ,3600,3960000.0,,Sector 104
3008,4.0,Ready to move,5550 ,16400,91000000.0,,Sector 128
3009,4.0,Ready to move,8250 ,15624,128900000.0,4 ,Sector 150
3010,4.0,Under Construction,6050 ,25000,151200000.0,,Sector 94
3011,4.0,Under Construction,4700 ,18106,85000000.0,3 ,Sector 144
3012,4.0,Ready to move,8500 ,15624,132800000.0,,Sector 150
3013,5.0,Ready to move,10000 ,16400,164000000.0,,Sector 128
3014,6.0,Under Construction,10000 ,25000,250000000.0,,Sector 94
3015,3.0,Under Construction,3011 ,24882,74900000.0,3 ,Sector 128
3016,4.0,Ready to move,4500 ,15624,70300000.0,4 ,Sector 150
3017,4.0,Under Construction,4145 ,24881,103100000.0,3 ,Sector 128
3018,3.0,Ready to move,2850 ,16400,46700000.0,3 ,Sector 128
3019,4.0,Under Construction,4113 ,24881,102300000.0,3 ,Sector 128
3020,3.0,Ready to move,1340 ,6338,8494000.0,,Sector 143
3021,2.0,Under Construction,1515 ,15000,22700000.0,,Sector 150
3022,2.0,Ready to move,1025 ,7200,7380000.0,,Sector 144
3023,4.0,Ready to move,3575 ,16400,58600000.0,,Sector 128
3024,3.0,Ready to move,1695 ,6312,10700000.0,,Sector 143
3025,3.0,Under Construction,1700 ,12000,20400000.0,3 ,Sector 150
3026,3.0,Under Construction,1202 ,13000,15600000.0,,Sector 150
3027,2.0,Ready to move,1000 ,4500,4500000.0,,Sector 104
3028,2.0,Ready to move,1315 ,6751,8878000.0,2 ,Sector 143
3029,3.0,Ready to move,1995 ,6566,13100000.0,,Sector 143
3030,2.0,Ready to move,950 ,4500,4275000.0,,Sector 104
3031,2.0,Ready to move,1380 ,6833,9430000.0,2 ,Sector 143
3032,3.0,Under Construction,2375 ,15000,35600000.0,3 ,Sector 150
3033,2.0,Ready to move,1110 ,7500,8325000.0,,Sector 137
3034,3.0,Ready to move,2700 ,16400,44200000.0,,Sector 128
3035,2.0,Ready to move,900 ,4500,4050000.0,,Sector 104
3036,2.0,Ready to move,1356 ,6338,8595000.0,2 ,Sector 143
3037,4.0,Ready to move,2275 ,7500,17000000.0,,Sector 137
3038,3.0,Ready to move,1350 ,4500,6075000.0,,Sector 104
3039,5.0,Ready to move,4200 ,16400,68800000.0,,Sector 128
3040,1.0,Under Construction,625 ,13000,8125000.0,,Sector 150
3041,2.0,Under Construction,977 ,13000,12700000.0,,Sector 150
3042,2.0,Under Construction,743 ,24032,17800000.0,,Sector 150
3043,1.0,Ready to move,584 ,5880,3433000.0,1 ,Sector 120
3044,3.0,Under Construction,3019 ,15000,45200000.0,,Sector 150
3045,2.0,Under Construction,801 ,13000,10400000.0,,Sector 150
3046,4.0,Under Construction,6100 ,5147,31400000.0,,Sector 150
3047,1.0,Under Construction,603 ,13000,7839000.0,,Sector 150
3048,3.0,Under Construction,2160 ,15000,32400000.0,3 ,Sector 150
3049,4.0,Ready to move,3465 ,16400,56800000.0,4 ,Sector 128
3050,3.0,Ready to move,1370 ,7200,9864000.0,2 ,Sector 144
3051,2.0,Under Construction,1184 ,13000,15300000.0,,Sector 150
3052,3.0,Ready to move,18072 ,355,6415000.0,,Sector 150
3053,4.0,Ready to move,5200 ,16400,85200000.0,,Sector 128
3054,3.0,Ready to move,1475 ,7200,10600000.0,2 ,Sector 144
3055,2.0,Under Construction,773 ,13016,10000000.0,,Sector 150
3056,3.0,Under Construction,2040 ,13000,26500000.0,,Sector 150
3057,2.0,Ready to move,9072 ,355,3220000.0,,Sector 150
3058,3.0,Under Construction,2493 ,15000,37300000.0,3 ,Sector 150
3059,4.0,Ready to move,3325 ,16400,54500000.0,,Sector 128
3060,3.0,Under Construction,1356 ,41294,55900000.0,,Sector 150
3061,3.0,Under Construction,1223 ,24032,29300000.0,,Sector 150
3062,3.0,Under Construction,1361 ,24032,32700000.0,,Sector 150
3063,2.0,Under Construction,893 ,24032,21400000.0,,Sector 150
3064,4.0,Under Construction,2164 ,24032,52000000.0,,Sector 150
3065,3.0,Under Construction,1227 ,40386,49500000.0,,Sector 150
3066,4.0,Under Construction,1927 ,24032,46300000.0,,Sector 150
3067,4.0,Under Construction,1615 ,38689,62400000.0,,Sector 150
3068,2.0,Under Construction,745 ,24032,17900000.0,,Sector 150
3069,4.0,Under Construction,3200 ,12226,39100000.0,,Sector 152
3070,3.0,Under Construction,1130 ,40556,45800000.0,,Sector 150
3071,3.0,Under Construction,2350 ,12308,28900000.0,,Sector 152
3072,3.0,Under Construction,1129 ,24032,27100000.0,3 ,Sector 150
3073,3.0,Under Construction,1850 ,12391,22900000.0,3 ,Sector 152
3074,2.0,Under Construction,743 ,24032,17800000.0,,Sector 150
3075,3.0,Ready to move,1690 ,11000,18500000.0,,Sector 150
3076,3.0,Ready to move,1495 ,11000,16400000.0,,Sector 150
3077,2.0,Ready to move,1245 ,11000,13600000.0,,Sector 150
3078,4.0,Under Construction,3198 ,14982,47900000.0,,Sector 150
3079,2.0,Under Construction,1305 ,14983,19500000.0,,Sector 150
3080,3.0,Under Construction,3165 ,14983,47400000.0,,Sector 150
3081,3.0,Under Construction,2440 ,14983,36500000.0,,Sector 150
3082,3.0,Under Construction,1947 ,14982,29100000.0,,Sector 150
3083,4.0,Under Construction,3963 ,14982,59300000.0,,Sector 150
3084,2.0,Under Construction,1558 ,14983,23300000.0,,Sector 150
3085,2.0,Under Construction,1628 ,14983,24300000.0,,Sector 150
3086,3.0,Under Construction,1580 ,8000,12600000.0,,Phase 2 Noida Extension
3087,4.0,Under Construction,2450 ,8000,19600000.0,,Phase 2 Noida Extension
3088,3.0,Under Construction,1895 ,8000,15100000.0,,Phase 2 Noida Extension
3089,3.0,Under Construction,1355 ,8000,10800000.0,,Phase 2 Noida Extension
3090,3.0,Under Construction,1600 ,8000,12800000.0,,Phase 2 Noida Extension
3091,2.0,Under Construction,771 ,13000,10000000.0,,Sector 150
3092,1.0,Under Construction,625 ,13000,8125000.0,,Sector 150
3093,2.0,Under Construction,977 ,13000,12700000.0,,Sector 150
3094,2.0,Under Construction,801 ,13000,10400000.0,,Sector 150
3095,4.0,Under Construction,3131 ,13770,43100000.0,,Sector 43
3096,2.0,Under Construction,1111 ,13770,15200000.0,,Sector 43
3097,1.0,Under Construction,603 ,13000,7839000.0,,Sector 150
3098,3.0,Under Construction,2088 ,13770,28700000.0,3 ,Sector 43
3099,4.0,Under Construction,2259 ,13770,31100000.0,,Sector 43
3100,2.0,Under Construction,1184 ,13000,15300000.0,,Sector 150
3101,3.0,Under Construction,2563 ,13770,35200000.0,3 ,Sector 43
3102,2.0,Under Construction,1053 ,13770,14400000.0,,Sector 43
3103,2.0,Under Construction,773 ,13016,10000000.0,,Sector 150
3104,3.0,Under Construction,1614 ,13770,22200000.0,,Sector 43
3105,4.0,Under Construction,3360 ,13770,46200000.0,4 ,Sector 43
3106,5.0,Under Construction,3760 ,13770,51700000.0,5 ,Sector 43
3107,3.0,Under Construction,1455 ,13000,18900000.0,,Sector 150
3108,3.0,Under Construction,1525 ,13770,20900000.0,,Sector 43
3109,1.0,Under Construction,601 ,13000,7813000.0,,Sector 150
3110,2.0,Under Construction,1255 ,13770,17200000.0,2 ,Sector 43
3111,4.0,Under Construction,1903 ,13000,24700000.0,,Sector 150
3112,3.0,Under Construction,1202 ,13000,15600000.0,,Sector 150
3113,3.0,Under Construction,1404 ,11405,16000000.0,1 ,Sector 150
3114,4.0,Under Construction,2511 ,13000,32600000.0,4 ,Sector 75
3115,3.0,Under Construction,1675 ,8571,14300000.0,,Sector 150
3116,2.0,Under Construction,1155 ,10454,12000000.0,2 ,Sector 150
3117,3.0,Under Construction,1615 ,8571,13800000.0,2 ,Sector 150
3118,3.0,Under Construction,2124 ,13000,27600000.0,3 ,Sector 75
3119,2.0,Under Construction,1137 ,10461,11800000.0,,Sector 150
3120,4.0,Under Construction,2450 ,8000,19600000.0,,Phase 2 Noida Extension
3121,3.0,Under Construction,1895 ,8000,15100000.0,,Phase 2 Noida Extension
3122,3.0,Under Construction,1355 ,8000,10800000.0,,Phase 2 Noida Extension
3123,3.0,Under Construction,1600 ,8000,12800000.0,,Phase 2 Noida Extension
3124,3.0,Under Construction,1350 ,7752,10400000.0,2 ,Noida Extensions
3125,4.0,Under Construction,2010 ,7761,15500000.0,,Noida Extensions
3126,3.0,Under Construction,1545 ,7767,12000000.0,2 ,Noida Extensions
3127,3.0,Under Construction,1350 ,7752,10400000.0,2 ,Noida Extensions
3128,4.0,Under Construction,2010 ,7761,15500000.0,,Noida Extensions
3129,4.0,Under Construction,1821 ,24032,43700000.0,4 ,Sector 150
3130,4.0,Under Construction,1819 ,39727,72200000.0,,Sector 150
3131,4.0,Under Construction,1618 ,24032,38800000.0,4 ,Sector 150
3132,3.0,Under Construction,1356 ,41294,55900000.0,,Sector 150
3133,3.0,Under Construction,1223 ,24032,29300000.0,,Sector 150
3134,3.0,Under Construction,1361 ,24032,32700000.0,,Sector 150
3135,2.0,Under Construction,893 ,24032,21400000.0,,Sector 150
3136,4.0,Under Construction,2164 ,24032,52000000.0,,Sector 150
3137,3.0,Under Construction,1227 ,40386,49500000.0,,Sector 150
3138,4.0,Under Construction,1927 ,24032,46300000.0,,Sector 150
3139,4.0,Under Construction,1615 ,38689,62400000.0,,Sector 150
3140,3.0,Under Construction,1700 ,12000,20400000.0,3 ,Sector 150
3141,2.0,Ready to move,1150 ,7200,8280000.0,1 ,Sector 77
3142,5.0,Ready to move,6931 ,9698,67200000.0,,Sector 79
3143,3.0,Ready to move,1615 ,7200,11600000.0,,Sector 77
3144,4.0,Ready to move,5593 ,9697,54200000.0,,Sector 79
3145,2.0,Ready to move,1085 ,7200,7812000.0,,Sector 77
3146,4.0,Ready to move,3523 ,9698,34100000.0,,Sector 79
3147,3.0,Ready to move,1695 ,7200,12200000.0,,Sector 77
3148,5.0,Ready to move,4805 ,9697,46500000.0,,Sector 79
3149,2.0,Ready to move,1310 ,7200,9432000.0,2 ,Sector 77
3150,3.0,Ready to move,3429 ,9698,33200000.0,,Sector 79
3151,3.0,Ready to move,1400 ,7200,10000000.0,2 ,Sector 77
3152,4.0,Ready to move,4351 ,9698,42100000.0,,Sector 79
3153,3.0,Under Construction,2034 ,12900,26200000.0,,Sector 117
3154,3.0,Ready to move,3800 ,9500,36100000.0,,Sector 77
3155,4.0,Ready to move,3415 ,9698,33100000.0,,Sector 79
3156,3.0,Ready to move,1971 ,9500,18700000.0,,Sector 77
3157,4.0,Under Construction,3987 ,12900,51400000.0,,Sector 117
3158,4.0,Under Construction,2799 ,12900,36100000.0,4 ,Sector 117
3159,2.0,Ready to move,1175 ,9500,11100000.0,,Sector 77
3160,4.0,Under Construction,1618 ,24032,38800000.0,4 ,Sector 150
3161,3.0,Under Construction,1356 ,41294,55900000.0,,Sector 150
3162,3.0,Under Construction,1223 ,24032,29300000.0,,Sector 150
3163,3.0,Under Construction,1361 ,24032,32700000.0,,Sector 150
3164,2.0,Under Construction,893 ,24032,21400000.0,,Sector 150
3165,4.0,Under Construction,2164 ,24032,52000000.0,,Sector 150
3166,3.0,Under Construction,1227 ,40386,49500000.0,,Sector 150
3167,3.0,Under Construction,3011 ,24882,74900000.0,3 ,Sector 128
3168,4.0,Under Construction,1927 ,24032,46300000.0,,Sector 150
3169,4.0,Under Construction,4145 ,24881,103100000.0,3 ,Sector 128
3170,4.0,Under Construction,1615 ,38689,62400000.0,,Sector 150
3171,4.0,Under Construction,3200 ,12800,40900000.0,,Sector 150
3172,4.0,Under Construction,4113 ,24881,102300000.0,3 ,Sector 128
3173,2.0,Under Construction,745 ,24032,17900000.0,,Sector 150
3174,3.0,Under Construction,2000 ,12800,25600000.0,,Sector 150
3175,4.0,Under Construction,3905 ,24881,97100000.0,4 ,Sector 128
3176,3.0,Under Construction,1130 ,40556,45800000.0,,Sector 150
3177,3.0,Under Construction,3047 ,24882,75800000.0,3 ,Sector 128
3178,3.0,Under Construction,2300 ,12800,29400000.0,,Sector 150
3179,3.0,Under Construction,1129 ,24032,27100000.0,3 ,Sector 150
3180,3.0,Under Construction,1545 ,7767,12000000.0,2 ,Noida Extensions
3181,3.0,Under Construction,1350 ,7752,10400000.0,2 ,Noida Extensions
3182,2.0,Under Construction,1137 ,10461,11800000.0,,Sector 150
3183,4.0,Under Construction,2010 ,7761,15500000.0,,Noida Extensions
3184,3.0,Under Construction,2034 ,12900,26200000.0,,Sector 117
3185,4.0,Under Construction,3987 ,12900,51400000.0,,Sector 117
3186,4.0,Under Construction,2799 ,12900,36100000.0,4 ,Sector 117
3187,3.0,Under Construction,2304 ,12900,29700000.0,,Sector 117
3188,4.0,Under Construction,3294 ,12900,42400000.0,,Sector 117
3189,5.0,Under Construction,6939 ,12900,89500000.0,,Sector 117
3190,4.0,Under Construction,4707 ,12900,60700000.0,,Sector 117
3191,4.0,Ready to move,4874 ,12955,63100000.0,3 ,Sector 108
3192,3.0,Ready to move,3302 ,12955,42700000.0,2 ,Sector 108
3193,3.0,Ready to move,1690 ,11000,18500000.0,,Sector 150
3194,4.0,Ready to move,3996 ,12955,51700000.0,3 ,Sector 108
3195,3.0,Ready to move,1495 ,11000,16400000.0,,Sector 150
3196,2.0,Ready to move,1245 ,11000,13600000.0,,Sector 150
3197,2.0,Ready to move,1245 ,8500,10500000.0,,Sector 79
3198,4.0,Ready to move,2335 ,8500,19800000.0,3 ,Sector 79
3199,3.0,Ready to move,1645 ,8500,13900000.0,2 ,Sector 79
3200,3.0,Ready to move,1380 ,5200,7176000.0,2 ,Sector 150
3201,4.0,Ready to move,3775 ,16400,61900000.0,,Sector 128
3202,2.0,Ready to move,1000 ,3600,3600000.0,2 ,Sector 104
3203,6.0,Under Construction,10050 ,25000,251200000.0,,Sector 94
3204,4.0,Ready to move,2977 ,5200,15400000.0,4 ,Sector 150
3205,2.0,Ready to move,1425 ,7490,10600000.0,,Sector 150
3206,3.0,Under Construction,2330 ,7039,16400000.0,,Sector 150
3207,3.0,Ready to move,1484 ,5200,7716000.0,3 ,Sector 150
3208,2.0,Ready to move,900 ,3600,3240000.0,2 ,Sector 104
3209,4.0,Under Construction,6235 ,25000,155800000.0,,Sector 94
3210,5.0,Ready to move,5300 ,16400,86900000.0,,Sector 128
3211,4.0,Ready to move,4268 ,5200,22100000.0,,Sector 150
3212,3.0,Ready to move,1945 ,7490,14500000.0,,Sector 150
3213,4.0,Ready to move,3716 ,5200,19300000.0,4 ,Sector 150
3214,3.0,Ready to move,1858 ,5200,9661000.0,3 ,Sector 150
3215,3.0,Ready to move,1300 ,3600,4680000.0,2 ,Sector 104
3216,3.0,Ready to move,1962 ,5200,10200000.0,3 ,Sector 150
3217,5.0,Ready to move,4770 ,16400,78200000.0,,Sector 128
3218,4.0,Under Construction,6100 ,25000,152500000.0,,Sector 94
3219,3.0,Ready to move,2385 ,7990,19000000.0,,Sector 150
3220,2.0,Ready to move,1100 ,3600,3960000.0,,Sector 104
3221,4.0,Ready to move,5550 ,16400,91000000.0,,Sector 128
3222,4.0,Ready to move,8250 ,15624,128900000.0,4 ,Sector 150
3223,4.0,Under Construction,6050 ,25000,151200000.0,,Sector 94
3224,4.0,Under Construction,4700 ,18106,85000000.0,3 ,Sector 144
3225,4.0,Ready to move,8500 ,15624,132800000.0,,Sector 150
3226,5.0,Ready to move,10000 ,16400,164000000.0,,Sector 128
3227,6.0,Under Construction,10000 ,25000,250000000.0,,Sector 94
3228,3.0,Under Construction,3011 ,24882,74900000.0,3 ,Sector 128
3229,4.0,Ready to move,4500 ,15624,70300000.0,4 ,Sector 150
3230,4.0,Under Construction,4145 ,24881,103100000.0,3 ,Sector 128
3231,3.0,Ready to move,2850 ,16400,46700000.0,3 ,Sector 128
3232,4.0,Under Construction,4113 ,24881,102300000.0,3 ,Sector 128
3233,3.0,Under Construction,1775 ,14998,26600000.0,2 ,Sector 152
3234,4.0,Under Construction,3905 ,24881,97100000.0,4 ,Sector 128
3235,2.0,Under Construction,1350 ,13999,18800000.0,2 ,Sector 152
3236,4.0,Ready to move,3767 ,15625,58800000.0,,Sector 150
3237,5.0,Ready to move,5350 ,16400,87700000.0,,Sector 128
3238,4.0,Under Construction,6150 ,25000,153700000.0,,Sector 94
3239,3.0,Under Construction,3047 ,24882,75800000.0,3 ,Sector 128
3240,3.0,Ready to move,1750 ,13999,24400000.0,,Sector 150
3241,4.0,Ready to move,3150 ,15625,49200000.0,4 ,Sector 150
3242,5.0,Ready to move,11000 ,16400,180400000.0,,Sector 128
3243,4.0,Ready to move,3220 ,13999,45000000.0,,Sector 150
3244,4.0,Under Construction,3938 ,24881,97900000.0,4 ,Sector 128
3245,4.0,Under Construction,3200 ,12800,40900000.0,,Sector 150
3246,4.0,Ready to move,8000 ,15625,125000000.0,,Sector 150
3247,3.0,Ready to move,2190 ,13999,30600000.0,,Sector 150
3248,4.0,Ready to move,2600 ,7000,18200000.0,4 ,Sector 150
3249,3.0,Under Construction,2000 ,12800,25600000.0,,Sector 150
3250,4.0,Ready to move,5750 ,15625,89800000.0,6 ,Sector 150
3251,5.0,Ready to move,3750 ,7000,26200000.0,,Sector 150
3252,3.0,Ready to move,783 ,13409,10500000.0,3 ,Sector 150
3253,3.0,Ready to move,2460 ,13999,34400000.0,,Sector 150
3254,3.0,Under Construction,2300 ,12800,29400000.0,,Sector 150
3255,4.0,Ready to move,2700 ,7000,18900000.0,,Sector 150
3256,5.0,Ready to move,4350 ,7000,30400000.0,,Sector 150
3257,3.0,Under Construction,1625 ,12800,20800000.0,,Sector 150
3258,3.0,Under Construction,1675 ,8571,14300000.0,,Sector 150
3259,5.0,Ready to move,3600 ,7000,25200000.0,,Sector 150
3260,3.0,Under Construction,1600 ,8000,12800000.0,,Phase 2 Noida Extension
3261,1.0,Ready to move,408 ,6075,2478000.0,,Sector 168
3262,4.0,Under Construction,6285 ,24999,157100000.0,,Sector 94
3263,2.0,Ready to move,780 ,3602,2809000.0,1 ,Sector 104
3264,3.0,Ready to move,1760 ,7490,13100000.0,,Sector 150
3265,5.0,Ready to move,5250 ,16400,86100000.0,,Sector 128
3266,2.0,Under Construction,1587 ,15000,23800000.0,2 ,Sector 150
3267,2.0,Under Construction,1628 ,14983,24300000.0,,Sector 150
3268,3.0,Under Construction,2440 ,14983,36500000.0,,Sector 150
3269,4.0,Under Construction,1927 ,24032,46300000.0,,Sector 150
3270,4.0,Under Construction,1821 ,24032,43700000.0,4 ,Sector 150
3271,4.0,Under Construction,1819 ,39727,72200000.0,,Sector 150
3272,4.0,Under Construction,1618 ,24032,38800000.0,4 ,Sector 150
3273,3.0,Under Construction,1356 ,41294,55900000.0,,Sector 150
3274,3.0,Under Construction,1223 ,24032,29300000.0,,Sector 150
3275,3.0,Under Construction,1361 ,24032,32700000.0,,Sector 150
3276,2.0,Under Construction,893 ,24032,21400000.0,,Sector 150
3277,4.0,Under Construction,3198 ,14982,47900000.0,,Sector 150
3278,4.0,Under Construction,2164 ,24032,52000000.0,,Sector 150
3279,2.0,Under Construction,1305 ,14983,19500000.0,,Sector 150
3280,5.0,Ready to move,5250 ,16400,86100000.0,,Sector 128
3281,2.0,Under Construction,1587 ,15000,23800000.0,2 ,Sector 150
3282,2.0,Under Construction,1628 ,14983,24300000.0,,Sector 150
3283,3.0,Under Construction,2440 ,14983,36500000.0,,Sector 150
3284,4.0,Under Construction,1927 ,24032,46300000.0,,Sector 150
3285,3.0,Under Construction,1404 ,11405,16000000.0,1 ,Sector 150
3286,2.0,Under Construction,1155 ,10454,12000000.0,2 ,Sector 150
3287,3.0,Under Construction,1545 ,7767,12000000.0,2 ,Noida Extensions
3288,3.0,Under Construction,1350 ,7752,10400000.0,2 ,Noida Extensions
3289,2.0,Under Construction,1137 ,10461,11800000.0,,Sector 150
3290,4.0,Under Construction,2010 ,7761,15500000.0,,Noida Extensions
3291,2.0,Ready to move,1145 ,5676,6500000.0,2 ,Sector 137
3292,3.0,Under Construction,3011 ,24882,74900000.0,3 ,Sector 128
3293,4.0,Under Construction,4145 ,24881,103100000.0,3 ,Sector 128
3294,4.0,Under Construction,4113 ,24881,102300000.0,3 ,Sector 128
3295,4.0,Under Construction,3905 ,24881,97100000.0,4 ,Sector 128
3296,3.0,Under Construction,3047 ,24882,75800000.0,3 ,Sector 128
3297,4.0,Under Construction,3938 ,24881,97900000.0,4 ,Sector 128
3298,3.0,Under Construction,1580 ,8000,12600000.0,,Phase 2 Noida Extension
3299,4.0,Under Construction,2450 ,8000,19600000.0,,Phase 2 Noida Extension
3300,3.0,Under Construction,2555 ,13000,33200000.0,,Sector 150
3301,3.0,Ready to move,1750 ,10000,17500000.0,,Sector 150
3302,1.0,Under Construction,625 ,13000,8125000.0,,Sector 150
3303,2.0,Under Construction,977 ,13000,12700000.0,,Sector 150
3304,2.0,Under Construction,743 ,24032,17800000.0,,Sector 150
3305,1.0,Ready to move,584 ,5880,3433000.0,1 ,Sector 120
3306,3.0,Under Construction,3019 ,15000,45200000.0,,Sector 150
3307,2.0,Under Construction,801 ,13000,10400000.0,,Sector 150
3308,4.0,Under Construction,6100 ,5147,31400000.0,,Sector 150
3309,1.0,Under Construction,603 ,13000,7839000.0,,Sector 150
3310,3.0,Under Construction,2160 ,15000,32400000.0,3 ,Sector 150
3311,4.0,Ready to move,3465 ,16400,56800000.0,4 ,Sector 128
3312,3.0,Ready to move,1370 ,7200,9864000.0,2 ,Sector 144
3313,2.0,Under Construction,1184 ,13000,15300000.0,,Sector 150
3314,3.0,Ready to move,18072 ,355,6415000.0,,Sector 150
3315,4.0,Ready to move,5200 ,16400,85200000.0,,Sector 128
3316,3.0,Ready to move,1475 ,7200,10600000.0,2 ,Sector 144
3317,2.0,Under Construction,773 ,13016,10000000.0,,Sector 150
3318,3.0,Under Construction,2040 ,13000,26500000.0,,Sector 150
3319,2.0,Ready to move,9072 ,355,3220000.0,,Sector 150
3320,3.0,Under Construction,2493 ,15000,37300000.0,3 ,Sector 150
3321,4.0,Ready to move,3325 ,16400,54500000.0,,Sector 128
3322,3.0,Under Construction,1455 ,13000,18900000.0,,Sector 150
3323,3.0,Ready to move,1355 ,7200,9756000.0,2 ,Sector 144
3324,1.0,Under Construction,601 ,13000,7813000.0,,Sector 150
3325,4.0,Under Construction,3355 ,13000,43600000.0,,Sector 150
3326,3.0,Under Construction,2492 ,15000,37300000.0,,Sector 150
3327,4.0,Ready to move,3715 ,16400,60900000.0,,Sector 128
3328,2.0,Ready to move,1160 ,7200,8352000.0,1 ,Sector 144
3329,4.0,Under Construction,1903 ,13000,24700000.0,,Sector 150
3330,3.0,Ready to move,1340 ,6338,8494000.0,,Sector 143
3331,2.0,Under Construction,1515 ,15000,22700000.0,,Sector 150
3332,2.0,Ready to move,1025 ,7200,7380000.0,,Sector 144
3333,4.0,Ready to move,3575 ,16400,58600000.0,,Sector 128
3334,3.0,Ready to move,1695 ,6312,10700000.0,,Sector 143
3335,3.0,Under Construction,1700 ,12000,20400000.0,3 ,Sector 150
3336,3.0,Under Construction,1202 ,13000,15600000.0,,Sector 150
3337,2.0,Ready to move,1000 ,4500,4500000.0,,Sector 104
3338,2.0,Ready to move,1315 ,6751,8878000.0,2 ,Sector 143
3339,3.0,Ready to move,1995 ,6566,13100000.0,,Sector 143
3340,4.0,Under Construction,1903 ,13000,24700000.0,,Sector 150
3341,3.0,Under Construction,1202 ,13000,15600000.0,,Sector 150
3342,3.0,Under Construction,1404 ,11405,16000000.0,1 ,Sector 150
3343,4.0,Under Construction,2511 ,13000,32600000.0,4 ,Sector 75
3344,3.0,Under Construction,1675 ,8571,14300000.0,,Sector 150
3345,2.0,Under Construction,1155 ,10454,12000000.0,2 ,Sector 150
3346,3.0,Under Construction,1615 ,8571,13800000.0,2 ,Sector 150
3347,3.0,Under Construction,2124 ,13000,27600000.0,3 ,Sector 75
3348,2.0,Under Construction,1137 ,10461,11800000.0,,Sector 150
3349,3.0,Under Construction,1656 ,13000,21500000.0,2 ,Sector 75
3350,3.0,Under Construction,1400 ,8571,11900000.0,3 ,Sector 150
3351,4.0,Ready to move,3590 ,5750,20600000.0,3 ,Sector 168
3352,3.0,Ready to move,2100 ,5750,12000000.0,2 ,Sector 168
3353,3.0,Ready to move,2230 ,5750,12800000.0,3 ,Sector 168
3354,1.0,Ready to move,685 ,5800,3973000.0,1 ,Sector 168
3355,4.0,Ready to move,3500 ,5750,20100000.0,3 ,Sector 168
3356,1.0,Ready to move,500 ,6075,3037000.0,,Sector 168
3357,4.0,Ready to move,4500 ,6075,27300000.0,,Sector 168
3358,3.0,Ready to move,2185 ,5750,12500000.0,3 ,Sector 168
3359,4.0,Ready to move,2250 ,6075,13600000.0,,Sector 168
3360,4.0,Ready to move,2700 ,5750,15500000.0,4 ,Sector 168
3361,2.0,Ready to move,959 ,6075,5825000.0,,Sector 168
3362,,Under Construction,650 ,7299,4744000.0,1 ,Sector 140A
3363,1.0,Ready to move,575 ,5500,3162000.0,,Sector 168
3364,3.0,Ready to move,1750 ,5750,10000000.0,2 ,Sector 168
3365,,Under Construction,800 ,7499,5999000.0,1 ,Sector 140A
3366,2.0,Ready to move,1335 ,5500,7342000.0,2 ,Sector 168
3367,4.0,Under Construction,3000 ,14900,44700000.0,4 ,Sector 107
3368,2.0,Ready to move,1200 ,6075,7290000.0,,Sector 168
3369,3.0,Ready to move,1415 ,5500,7782000.0,,Sector 168
3370,4.0,Under Construction,3720 ,14900,55400000.0,,Sector 107
3371,5.0,Ready to move,5500 ,6075,33400000.0,,Sector 168
3372,1.0,Ready to move,615 ,5800,3567000.0,1 ,Sector 168
3373,2.0,Ready to move,1125 ,5500,6187000.0,,Sector 168
3374,3.0,Under Construction,3270 ,18318,59800000.0,3 ,Sector 94
3375,3.0,Under Construction,2500 ,14900,37200000.0,3 ,Sector 107
3376,3.0,Ready to move,1400 ,6075,8505000.0,,Sector 168
3377,2.0,Ready to move,915 ,5500,5032000.0,,Sector 168
3378,5.0,Under Construction,6220 ,19490,121200000.0,,Sector 94
3379,3.0,Ready to move,1955 ,5250,10200000.0,,Sector 168
3380,3.0,Under Construction,1700 ,12000,20400000.0,3 ,Sector 150
3381,4.0,Under Construction,3200 ,12226,39100000.0,,Sector 152
3382,3.0,Under Construction,2350 ,12308,28900000.0,,Sector 152
3383,3.0,Under Construction,1850 ,12391,22900000.0,3 ,Sector 152
3384,3.0,Under Construction,978 ,32753,32000000.0,,Sector 146
3385,2.0,Under Construction,831 ,32742,27200000.0,,Sector 146
3386,4.0,Under Construction,1714 ,62055,106300000.0,,Sector 146
3387,3.0,Under Construction,3019 ,15000,45200000.0,,Sector 150
3388,3.0,Under Construction,2160 ,15000,32400000.0,3 ,Sector 150
3389,3.0,Under Construction,2493 ,15000,37300000.0,3 ,Sector 150
3390,3.0,Under Construction,2492 ,15000,37300000.0,,Sector 150
3391,2.0,Under Construction,1515 ,15000,22700000.0,,Sector 150
3392,3.0,Under Construction,2375 ,15000,35600000.0,3 ,Sector 150
3393,2.0,Under Construction,1480 ,15000,22200000.0,2 ,Sector 150
3394,2.0,Under Construction,1587 ,15000,23800000.0,2 ,Sector 150
3395,3.0,Under Construction,2857 ,15000,42800000.0,3 ,Sector 150
3396,3.0,Under Construction,2473 ,15000,37000000.0,3 ,Sector 150
3397,4.0,Ready to move,4874 ,12955,63100000.0,3 ,Sector 108
3398,3.0,Ready to move,3302 ,12955,42700000.0,2 ,Sector 108
3399,3.0,Ready to move,1690 ,11000,18500000.0,,Sector 150
3400,3.0,Under Construction,3011 ,24882,74900000.0,3 ,Sector 128
3401,4.0,Under Construction,1927 ,24032,46300000.0,,Sector 150
3402,4.0,Under Construction,4145 ,24881,103100000.0,3 ,Sector 128
3403,4.0,Under Construction,1615 ,38689,62400000.0,,Sector 150
3404,4.0,Under Construction,3200 ,12800,40900000.0,,Sector 150
3405,4.0,Under Construction,4113 ,24881,102300000.0,3 ,Sector 128
3406,2.0,Under Construction,745 ,24032,17900000.0,,Sector 150
3407,3.0,Under Construction,2000 ,12800,25600000.0,,Sector 150
3408,4.0,Under Construction,3905 ,24881,97100000.0,4 ,Sector 128
3409,3.0,Under Construction,1130 ,40556,45800000.0,,Sector 150
3410,3.0,Under Construction,3047 ,24882,75800000.0,3 ,Sector 128
3411,3.0,Under Construction,2300 ,12800,29400000.0,,Sector 150
3412,3.0,Under Construction,1129 ,24032,27100000.0,3 ,Sector 150
3413,3.0,Under Construction,1625 ,12800,20800000.0,,Sector 150
3414,4.0,Under Construction,3938 ,24881,97900000.0,4 ,Sector 128
3415,3.0,Under Construction,978 ,32753,32000000.0,,Sector 146
3416,2.0,Under Construction,831 ,32742,27200000.0,,Sector 146
3417,4.0,Under Construction,1714 ,62055,106300000.0,,Sector 146
3418,2.0,Under Construction,743 ,24032,17800000.0,,Sector 150
3419,3.0,Under Construction,1545 ,7767,12000000.0,2 ,Noida Extensions
3420,4.0,Under Construction,4707 ,12900,60700000.0,,Sector 117
3421,5.0,Under Construction,5935 ,21398,127000000.0,,Sector 94
3422,3.0,Under Construction,1580 ,8000,12600000.0,,Phase 2 Noida Extension
3423,4.0,Under Construction,2450 ,8000,19600000.0,,Phase 2 Noida Extension
3424,3.0,Under Construction,1895 ,8000,15100000.0,,Phase 2 Noida Extension
3425,3.0,Under Construction,1355 ,8000,10800000.0,,Phase 2 Noida Extension
3426,3.0,Under Construction,1600 ,8000,12800000.0,,Phase 2 Noida Extension
3427,3.0,Ready to move,783 ,13409,10500000.0,3 ,Sector 150
3428,3.0,Ready to move,981 ,13047,12800000.0,,Sector 150
3429,2.0,Ready to move,648 ,14376,9316000.0,,Sector 150
3430,4.0,Under Construction,3000 ,14900,44700000.0,4 ,Sector 107
3431,4.0,Under Construction,3720 ,14900,55400000.0,,Sector 107
3432,3.0,Under Construction,2500 ,14900,37200000.0,3 ,Sector 107
3433,4.0,Under Construction,2970 ,14900,44200000.0,4 ,Sector 107
3434,3.0,Under Construction,2575 ,14900,38300000.0,3 ,Sector 107
3435,4.0,Under Construction,3550 ,14900,52800000.0,,Sector 107
3436,3.0,Ready to move,1750 ,13999,24400000.0,,Sector 150
3437,4.0,Ready to move,3220 ,13999,45000000.0,,Sector 150
3438,3.0,Ready to move,2190 ,13999,30600000.0,,Sector 150
3439,3.0,Ready to move,2460 ,13999,34400000.0,,Sector 150
3440,3.0,Ready to move,1575 ,9990,15700000.0,,Sector 77
3441,3.0,Ready to move,1970 ,9990,19600000.0,,Sector 77
3442,3.0,Ready to move,1580 ,9990,15700000.0,,Sector 77
3443,2.0,Ready to move,1320 ,9990,13100000.0,,Sector 77
3444,3.0,Ready to move,1950 ,9990,19400000.0,,Sector 77
3445,2.0,Ready to move,1430 ,9990,14200000.0,,Sector 77
3446,2.0,Ready to move,1285 ,9990,12800000.0,,Sector 77
3447,2.0,Ready to move,1150 ,9990,11400000.0,2 ,Sector 77
3448,3.0,Ready to move,1790 ,9990,17800000.0,,Sector 77
3449,3.0,Ready to move,1395 ,9990,13900000.0,,Sector 77
3450,4.0,Ready to move,4874 ,12955,63100000.0,3 ,Sector 108
3451,3.0,Ready to move,3302 ,12955,42700000.0,2 ,Sector 108
3452,3.0,Ready to move,1690 ,11000,18500000.0,,Sector 150
3453,4.0,Ready to move,3996 ,12955,51700000.0,3 ,Sector 108
3454,3.0,Ready to move,1495 ,11000,16400000.0,,Sector 150
3455,2.0,Ready to move,1245 ,11000,13600000.0,,Sector 150
3456,2.0,Ready to move,1245 ,8500,10500000.0,,Sector 79
3457,4.0,Ready to move,2335 ,8500,19800000.0,3 ,Sector 79
3458,3.0,Ready to move,1645 ,8500,13900000.0,2 ,Sector 79
3459,5.0,Ready to move,2715 ,8500,23000000.0,1 ,Sector 79
3460,5.0,Under Construction,6220 ,19490,121200000.0,,Sector 94
3461,5.0,Under Construction,5935 ,19490,115600000.0,,Sector 94
3462,4.0,Under Construction,4315 ,19490,84000000.0,4 ,Sector 94
3463,4.0,Ready to move,3179 ,9698,30800000.0,,Sector 79
3464,4.0,Ready to move,4886 ,9698,47300000.0,,Sector 79
3465,4.0,Ready to move,2690 ,6500,17400000.0,,Sector 79
3466,3.0,Ready to move,2665 ,9698,25800000.0,,Sector 79
3467,5.0,Ready to move,6805 ,9697,65900000.0,,Sector 79
3468,3.0,Under Construction,2555 ,13000,33200000.0,,Sector 150
3469,3.0,Ready to move,1470 ,7200,10500000.0,,Sector 77
3470,3.0,Ready to move,1495 ,10368,15500000.0,,Sector 79
3471,4.0,Under Construction,6100 ,5147,31400000.0,,Sector 150
3472,2.0,Ready to move,1075 ,7200,7740000.0,,Sector 77
3473,3.0,Under Construction,2040 ,13000,26500000.0,,Sector 150
3474,4.0,Ready to move,3206 ,9698,31000000.0,,Sector 79
3475,2.0,Ready to move,990 ,7200,7128000.0,,Sector 77
3476,4.0,Under Construction,3355 ,13000,43600000.0,,Sector 150
3477,3.0,Ready to move,1735 ,6500,11200000.0,,Sector 79
3478,3.0,Ready to move,1765 ,7200,12700000.0,3 ,Sector 77
3479,3.0,Under Construction,1700 ,12000,20400000.0,3 ,Sector 150
3480,2.0,Ready to move,1150 ,7200,8280000.0,1 ,Sector 77
3481,5.0,Ready to move,6931 ,9698,67200000.0,,Sector 79
3482,3.0,Ready to move,1615 ,7200,11600000.0,,Sector 77
3483,4.0,Ready to move,5593 ,9697,54200000.0,,Sector 79
3484,2.0,Ready to move,1085 ,7200,7812000.0,,Sector 77
3485,4.0,Ready to move,3523 ,9698,34100000.0,,Sector 79
3486,3.0,Ready to move,1695 ,7200,12200000.0,,Sector 77
3487,5.0,Ready to move,4805 ,9697,46500000.0,,Sector 79
3488,2.0,Ready to move,1310 ,7200,9432000.0,2 ,Sector 77
3489,3.0,Ready to move,3429 ,9698,33200000.0,,Sector 79
3490,3.0,Ready to move,1400 ,7200,10000000.0,2 ,Sector 77
3491,4.0,Ready to move,4351 ,9698,42100000.0,,Sector 79
3492,3.0,Under Construction,2034 ,12900,26200000.0,,Sector 117
3493,3.0,Ready to move,3800 ,9500,36100000.0,,Sector 77
3494,4.0,Ready to move,3415 ,9698,33100000.0,,Sector 79
3495,3.0,Ready to move,1971 ,9500,18700000.0,,Sector 77
3496,4.0,Under Construction,3987 ,12900,51400000.0,,Sector 117
3497,4.0,Under Construction,2799 ,12900,36100000.0,4 ,Sector 117
3498,2.0,Ready to move,1175 ,9500,11100000.0,,Sector 77
3499,3.0,Under Construction,2304 ,12900,29700000.0,,Sector 117
3500,4.0,Ready to move,2569 ,9500,24400000.0,,Sector 77
3501,4.0,Under Construction,3294 ,12900,42400000.0,,Sector 117
3502,3.0,Ready to move,1726 ,9500,16300000.0,,Sector 77
3503,5.0,Under Construction,6939 ,12900,89500000.0,,Sector 117
3504,3.0,Ready to move,2276 ,9500,21600000.0,,Sector 77
3505,4.0,Under Construction,4707 ,12900,60700000.0,,Sector 117
3506,2.0,Ready to move,1145 ,5676,6500000.0,2 ,Sector 137
3507,3.0,Under Construction,1404 ,11405,16000000.0,1 ,Sector 150
3508,2.0,Under Construction,1155 ,10454,12000000.0,2 ,Sector 150
3509,3.0,Under Construction,1545 ,7767,12000000.0,2 ,Noida Extensions
3510,3.0,Under Construction,1350 ,7752,10400000.0,2 ,Noida Extensions
3511,2.0,Under Construction,1137 ,10461,11800000.0,,Sector 150
3512,4.0,Under Construction,2010 ,7761,15500000.0,,Noida Extensions
3513,3.0,Ready to move,2150 ,5200,11100000.0,1 ,Sector 16B
3514,4.0,Ready to move,2600 ,5200,13500000.0,,Sector 16B
3515,3.0,Ready to move,2250 ,5200,11700000.0,,Sector 16B
3516,3.0,Ready to move,1850 ,5200,9620000.0,,Sector 16B
3517,1.0,Ready to move,690 ,4347,3000000.0,1 ,Sector 22D Yamuna Expressway
3518,4.0,Under Construction,1821 ,24032,43700000.0,4 ,Sector 150
3519,4.0,Under Construction,1819 ,39727,72200000.0,,Sector 150
3520,4.0,Under Construction,1618 ,24032,38800000.0,4 ,Sector 150
3521,3.0,Under Construction,1356 ,41294,55900000.0,,Sector 150
3522,3.0,Under Construction,1223 ,24032,29300000.0,,Sector 150
3523,3.0,Under Construction,1361 ,24032,32700000.0,,Sector 150
3524,2.0,Under Construction,893 ,24032,21400000.0,,Sector 150
3525,4.0,Under Construction,2164 ,24032,52000000.0,,Sector 150
3526,3.0,Under Construction,1227 ,40386,49500000.0,,Sector 150
3527,4.0,Under Construction,1927 ,24032,46300000.0,,Sector 150
3528,4.0,Under Construction,3200 ,12226,39100000.0,4 ,Sector 150
3529,4.0,Under Construction,1615 ,38689,62400000.0,,Sector 150
3530,3.0,Under Construction,2350 ,12308,28900000.0,3 ,Sector 150
3531,2.0,Under Construction,745 ,24032,17900000.0,,Sector 150
3532,3.0,Under Construction,1130 ,40556,45800000.0,,Sector 150
3533,3.0,Under Construction,1129 ,24032,27100000.0,3 ,Sector 150
3534,2.0,Under Construction,743 ,24032,17800000.0,,Sector 150
3535,3.0,Under Construction,1890 ,3889,7352000.0,3 ,Sector 19 Yamuna Expressway
3536,4.0,Ready to move,2520 ,4880,12300000.0,5 ,Sector 77
3537,3.0,Ready to move,1540 ,5974,9200000.0,3 ,sector-121 Noida
3538,4.0,Under Construction,3300 ,2615,8630000.0,4 ,Sector 75
3539,4.0,Under Construction,3501 ,5598,19600000.0,4 ,Sector 107
3540,3.0,Under Construction,2034 ,12900,26200000.0,,Sector 117
3541,4.0,Under Construction,3987 ,12900,51400000.0,,Sector 117
3542,4.0,Under Construction,2799 ,12900,36100000.0,4 ,Sector 117
3543,3.0,Under Construction,2304 ,12900,29700000.0,,Sector 117
3544,4.0,Under Construction,3294 ,12900,42400000.0,,Sector 117
3545,5.0,Under Construction,6939 ,12900,89500000.0,,Sector 117
3546,4.0,Under Construction,4707 ,12900,60700000.0,,Sector 117
3547,3.0,Under Construction,3011 ,24882,74900000.0,3 ,Sector 128
3548,4.0,Under Construction,4145 ,24881,103100000.0,3 ,Sector 128
3549,4.0,Under Construction,4113 ,24881,102300000.0,3 ,Sector 128
3550,4.0,Under Construction,3905 ,24881,97100000.0,4 ,Sector 128
3551,3.0,Under Construction,3047 ,24882,75800000.0,3 ,Sector 128
3552,4.0,Under Construction,3938 ,24881,97900000.0,4 ,Sector 128
3553,3.0,Under Construction,1580 ,8000,12600000.0,,Phase 2 Noida Extension
3554,4.0,Under Construction,2450 ,8000,19600000.0,,Phase 2 Noida Extension
3555,3.0,Under Construction,1895 ,8000,15100000.0,,Phase 2 Noida Extension
3556,3.0,Under Construction,1355 ,8000,10800000.0,,Phase 2 Noida Extension
3557,3.0,Under Construction,1600 ,8000,12800000.0,,Phase 2 Noida Extension
3558,3.0,Under Construction,2850 ,11000,31300000.0,,Sector 150
3559,3.0,Under Construction,2450 ,11000,26900000.0,,Sector 150
3560,4.0,Under Construction,2550 ,5176,13200000.0,5 ,Sector 144
3561,4.0,Ready to move,2405 ,5114,12300000.0,4 ,Sector 51
3562,3.0,Ready to move,1835 ,4715,8653000.0,3 ,Sector 110
3563,3.0,Ready to move,1568 ,4397,6896000.0,2 ,Sector 135
3564,3.0,Ready to move,1860 ,4639,8630000.0,3 ,Sector-128 Noida
3565,4.0,Ready to move,3700 ,3333,12300000.0,4 ,Sector 61
3566,3.0,Ready to move,1581 ,5208,8235000.0,2 ,Sector 82
3567,4.0,Under Construction,2990 ,6521,19500000.0,5 ,Sector 150
3568,3.0,Ready to move,1440 ,6150,8856000.0,2 ,Sector 76
3569,6.0,Under Construction,3600 ,4666,16800000.0,7 ,Sector 138
3570,3.0,Under Construction,1940 ,5463,10600000.0,3 ,Sector 150
3571,3.0,Ready to move,1165 ,5882,6853000.0,3 ,Sector 168
3572,3.0,Under Construction,1655 ,3838,6352000.0,3 ,Phase 2 Noida Extension
3573,2.0,Ready to move,850 ,6252,5315000.0,2 ,Sector 73
3574,3.0,Under Construction,1825 ,6767,12300000.0,3 ,Sector 150
3575,3.0,Ready to move,1770 ,4727,8368000.0,3 ,Sector 52
3576,3.0,Ready to move,1865 ,4483,8362000.0,3 ,Sector 119
3577,3.0,Ready to move,1700 ,5037,8564000.0,,Sector 62
3578,3.0,Ready to move,1860 ,4711,8763000.0,3 ,Sector 44
3579,3.0,Ready to move,1750 ,4940,8645000.0,3 ,Sector 162
3580,5.0,Ready to move,3158 ,5319,16800000.0,4 ,Sector 51
3581,3.0,Ready to move,1760 ,5092,8963000.0,3 ,Sector 75
3582,3.0,Under Construction,2360 ,3543,8363000.0,3 ,Sector 131
3583,4.0,Under Construction,2350 ,3887,9135000.0,3 ,Sector 17A Yamuna Expressway
3584,3.0,Under Construction,1786 ,4963,8864000.0,3 ,Sector 121
3585,3.0,Ready to move,1580 ,5166,8163000.0,3 ,Sector 104
3586,3.0,Ready to move,1760 ,4678,8235000.0,3 ,Sector 49
3587,3.0,Under Construction,1425 ,4628,6596000.0,3 ,Sector 143B
3588,3.0,Ready to move,1350 ,4617,6234000.0,3 ,Sector 104
3589,3.0,Ready to move,1784 ,4316,7700000.0,3 ,Ambedkar City
3590,3.0,Under Construction,1235 ,5774,7132000.0,3 ,Sector 44
3591,3.0,Ready to move,2080 ,3430,7135000.0,3 ,Sector 44
3592,3.0,Under Construction,1860 ,4129,7681000.0,3 ,Sector 151
3593,2.0,Under Construction,700 ,7335,5135000.0,2 ,Sector 70
3594,4.0,Ready to move,2450 ,3942,9658000.0,3 ,Sector 82
3595,3.0,Ready to move,1845 ,4405,8128000.0,3 ,Sector 62
3596,3.0,Ready to move,1950 ,4391,8563000.0,3 ,Sector 162
3597,3.0,Ready to move,1452 ,4903,7120000.0,3 ,Sector 168
3598,3.0,Under Construction,1400 ,5250,7351000.0,3 ,Sector 162
3599,3.0,Ready to move,1957 ,4150,8123000.0,3 ,Sector-81 Noida
3600,3.0,Under Construction,1235 ,5320,6571000.0,3 ,Sector 44
3601,3.0,Ready to move,1535 ,5447,8362000.0,2 ,Sector 76
3602,3.0,Ready to move,1890 ,4064,7681000.0,3 ,Sector 121
3603,2.0,Under Construction,1560 ,4217,6580000.0,2 ,Sector 45
3604,4.0,Ready to move,2700 ,4555,12300000.0,5 ,Sector 75
3605,2.0,Ready to move,1072 ,6065,6502000.0,2 ,Sector 121
3606,3.0,Ready to move,1590 ,4817,7660000.0,3 ,Sector 17B Yamuna Expressway
3607,3.0,Ready to move,1840 ,3980,7325000.0,3 ,Sector 79
3608,4.0,Under Construction,2645 ,4234,11200000.0,4 ,Sector 121
3609,3.0,Ready to move,1640 ,4347,7130000.0,3 ,Sector 70
3610,3.0,Ready to move,1589 ,5471,8695000.0,3 ,Sector 77
3611,3.0,Ready to move,2350 ,4778,11200000.0,3 ,Sector 49
3612,4.0,Under Construction,2371 ,4649,11000000.0,4 ,Sector 150
3613,3.0,Ready to move,1350 ,5691,7684000.0,,Sector 62
3614,4.0,Ready to move,2100 ,6285,13200000.0,,Sector 62
3615,3.0,Ready to move,1540 ,4773,7351000.0,3 ,Sector 49
3616,4.0,Ready to move,1900 ,4922,9352000.0,4 ,Sector 79
3617,3.0,Ready to move,1860 ,4652,8653000.0,3 ,Sector 22D Yamuna Expressway
3618,2.0,Ready to move,900 ,7057,6352000.0,2 ,Sector 62
3619,3.0,Ready to move,1860 ,4425,8232000.0,3 ,Sector 70
3620,3.0,Ready to move,1690 ,11000,18500000.0,,Sector 150
3621,3.0,Ready to move,1495 ,11000,16400000.0,,Sector 150
3622,2.0,Ready to move,1245 ,11000,13600000.0,,Sector 150
3623,3.0,Under Construction,2850 ,11000,31300000.0,,Sector 150
3624,3.0,Under Construction,2450 ,11000,26900000.0,,Sector 150
3625,3.0,Under Construction,1580 ,8000,12600000.0,,Phase 2 Noida Extension
3626,4.0,Under Construction,2450 ,8000,19600000.0,,Phase 2 Noida Extension
3627,3.0,Under Construction,1895 ,8000,15100000.0,,Phase 2 Noida Extension
3628,3.0,Under Construction,1355 ,8000,10800000.0,,Phase 2 Noida Extension
3629,3.0,Under Construction,1600 ,8000,12800000.0,,Phase 2 Noida Extension
3630,1.0,Ready to move,600 ,4000,2400000.0,,Sector 73
3631,2.0,Ready to move,1100 ,3181,3499000.0,,Sector 73
3632,2.0,Ready to move,1150 ,3217,3700000.0,,Sector 73
3633,1.0,Ready to move,600 ,4000,2400000.0,,Sector 73
3634,3.0,Under Construction,2034 ,12900,26200000.0,,Sector 117
3635,4.0,Under Construction,3987 ,12900,51400000.0,,Sector 117
3636,4.0,Under Construction,2799 ,12900,36100000.0,4 ,Sector 117
3637,3.0,Under Construction,2304 ,12900,29700000.0,,Sector 117
3638,4.0,Under Construction,3294 ,12900,42400000.0,,Sector 117
3639,5.0,Under Construction,6939 ,12900,89500000.0,,Sector 117
3640,3.0,Ready to move,1784 ,4316,7700000.0,3 ,Ambedkar City
3641,3.0,Under Construction,1235 ,5774,7132000.0,3 ,Sector 44
3642,3.0,Ready to move,2080 ,3430,7135000.0,3 ,Sector 44
3643,3.0,Under Construction,1860 ,4129,7681000.0,3 ,Sector 151
3644,2.0,Under Construction,700 ,7335,5135000.0,2 ,Sector 70
3645,4.0,Ready to move,2450 ,3942,9658000.0,3 ,Sector 82
3646,3.0,Ready to move,1845 ,4405,8128000.0,3 ,Sector 62
3647,3.0,Ready to move,1950 ,4391,8563000.0,3 ,Sector 162
3648,3.0,Ready to move,1452 ,4903,7120000.0,3 ,Sector 168
3649,3.0,Under Construction,1400 ,5250,7351000.0,3 ,Sector 162
3650,3.0,Ready to move,1957 ,4150,8123000.0,3 ,Sector-81 Noida
3651,4.0,Ready to move,2275 ,4335,9863000.0,4 ,Sector 137
3652,3.0,Ready to move,1360 ,5266,7163000.0,2 ,Sector 137
3653,4.0,Ready to move,2650 ,4852,12800000.0,3 ,Sector 123
3654,2.0,Ready to move,1756 ,4817,8460000.0,3 ,Sector 135
3655,3.0,Under Construction,2205 ,5578,12300000.0,3 ,Sector 117
3656,3.0,Ready to move,1860 ,36844,68500000.0,3 ,Sector 73
3657,3.0,Ready to move,1470 ,4013,5900000.0,3 ,Sector-122 Noida
3658,2.0,Ready to move,1135 ,7367,8362000.0,3 ,Sector 70
3659,1.0,Ready to move,600 ,4000,2400000.0,,Sector 73
3660,2.0,Ready to move,1100 ,3181,3499000.0,,Sector 73
3661,2.0,Ready to move,1150 ,3217,3700000.0,,Sector 73
3662,1.0,Ready to move,600 ,4000,2400000.0,,Sector 73
3663,3.0,Under Construction,2034 ,12900,26200000.0,,Sector 117
3664,4.0,Under Construction,3987 ,12900,51400000.0,,Sector 117
3665,4.0,Under Construction,2799 ,12900,36100000.0,4 ,Sector 117
3666,3.0,Under Construction,2304 ,12900,29700000.0,,Sector 117
3667,4.0,Under Construction,3294 ,12900,42400000.0,,Sector 117
3668,5.0,Under Construction,6939 ,12900,89500000.0,,Sector 117
3669,4.0,Under Construction,4707 ,12900,60700000.0,,Sector 117
3670,3.0,Under Construction,1580 ,8000,12600000.0,,Phase 2 Noida Extension
3671,4.0,Under Construction,2450 ,8000,19600000.0,,Phase 2 Noida Extension
3672,3.0,Under Construction,1895 ,8000,15100000.0,,Phase 2 Noida Extension
3673,3.0,Under Construction,1355 ,8000,10800000.0,,Phase 2 Noida Extension
3674,3.0,Under Construction,1600 ,8000,12800000.0,,Phase 2 Noida Extension
3675,2.0,Under Construction,3767 ,23891,90000000.0,1 ,Bhangel
3676,3.0,Under Construction,1380 ,8261,11400000.0,2 ,Noida Extensions
3677,4.0,Under Construction,2038 ,8391,17100000.0,,Noida Extensions
3678,1.0,Under Construction,506 ,21018,10600000.0,,Sector 72
3679,3.0,Under Construction,1580 ,8000,12600000.0,,Phase 2 Noida Extension
3680,4.0,Under Construction,2364 ,38070,89900000.0,,Sector 128
3681,3.0,Under Construction,3270 ,19114,62500000.0,3 ,Sector 94
3682,4.0,Under Construction,2840 ,36619,103900000.0,,Sector 128
3683,5.0,Under Construction,4613 ,56336,259800000.0,,Sector 128
3684,5.0,Under Construction,5935 ,19477,115600000.0,,Sector 94
3685,,Under Construction,650 ,7299,4744000.0,1 ,Sector 140A
3686,4.0,Under Construction,2824 ,36827,104000000.0,,Sector 128
3687,4.0,Under Construction,4315 ,19304,83300000.0,4 ,Sector 94
3688,,Under Construction,800 ,7499,5999000.0,1 ,Sector 140A
3689,4.0,Under Construction,2381 ,38277,91000000.0,,Sector 128
3690,4.0,Under Construction,3200 ,13226,42300000.0,4 ,Sector 150
3691,4.0,Under Construction,3650 ,11000,40100000.0,,Sector 150
3692,3.0,Under Construction,2750 ,11000,30200000.0,,Sector 150
3693,3.0,Under Construction,2350 ,13308,31200000.0,3 ,Sector 150
3694,3.0,Ready to move,1690 ,11000,18500000.0,,Sector 150
3695,3.0,Ready to move,1495 ,11000,16400000.0,,Sector 150
3696,2.0,Ready to move,1245 ,11000,13600000.0,,Sector 150
3697,2.0,Ready to move,1012 ,5550,5616000.0,2 ,Sector 25 Yamuna Express Way
3698,3.0,Ready to move,2400 ,5550,13300000.0,4 ,Sector 25 Yamuna Express Way
3699,3.0,Ready to move,1425 ,5850,8336000.0,,Sector 25 Yamuna Express Way
3700,3.0,Ready to move,1475 ,2983,4399000.0,,Noida Extensions
3701,3.0,Ready to move,1500 ,2967,4450000.0,,Noida Extensions
3702,3.0,Ready to move,1400 ,3286,4600000.0,,Noida Extensions
3703,3.0,Ready to move,1900 ,5200,9880000.0,,Sector 137
3704,2.0,Ready to move,1045 ,5200,5434000.0,,Sector 137
3705,3.0,Ready to move,1580 ,5200,8216000.0,,Sector 137
3706,2.0,Ready to move,960 ,6500,6240000.0,1 ,Sector 137
3707,3.0,Ready to move,1690 ,5200,8788000.0,,Sector 137
3708,2.0,Ready to move,925 ,6500,6012000.0,,Sector 137
3709,3.0,Ready to move,2400 ,5200,12400000.0,,Sector 137
3710,3.0,Ready to move,1695 ,5200,8814000.0,,Sector 137
3711,3.0,Ready to move,1365 ,5200,7098000.0,,Sector 137
3712,4.0,Ready to move,2950 ,5200,15300000.0,,Sector 137
3713,3.0,Ready to move,1565 ,6500,10100000.0,1 ,Sector 137
3714,2.0,Ready to move,1070 ,5200,5564000.0,,Sector 137
3715,3.0,Ready to move,1410 ,5200,7332000.0,1 ,Sector 137
3716,2.0,Ready to move,825 ,5200,4290000.0,,Sector 137
3717,1.0,Ready to move,450 ,5200,2340000.0,,Sector 137
3718,4.0,Ready to move,2450 ,5200,12700000.0,,Sector 137
3719,2.0,Ready to move,750 ,3200,2400000.0,,Sector 75
3720,3.0,Ready to move,1775 ,3699,6565000.0,3 ,Phase 2 Noida Extension
3721,4.0,Under Construction,1821 ,24032,43700000.0,4 ,Sector 150
3722,4.0,Under Construction,1819 ,39727,72200000.0,,Sector 150
3723,3.0,Under Construction,1800 ,9000,16200000.0,,Noida Extensions
3724,4.0,Under Construction,1618 ,24032,38800000.0,4 ,Sector 150
3725,3.0,Under Construction,2090 ,9000,18800000.0,,Noida Extensions
3726,3.0,Under Construction,2110 ,9000,18900000.0,,Noida Extensions
3727,3.0,Under Construction,1356 ,41294,55900000.0,,Sector 150
3728,3.0,Under Construction,1812 ,9000,16300000.0,,Noida Extensions
3729,3.0,Under Construction,1223 ,24032,29300000.0,,Sector 150
3730,4.0,Under Construction,2638 ,9000,23700000.0,,Noida Extensions
3731,4.0,Under Construction,2632 ,9000,23600000.0,,Noida Extensions
3732,3.0,Under Construction,1361 ,24032,32700000.0,,Sector 150
3733,3.0,Under Construction,1860 ,9000,16700000.0,,Noida Extensions
3734,2.0,Under Construction,893 ,24032,21400000.0,,Sector 150
3735,3.0,Under Construction,2075 ,9000,18600000.0,,Noida Extensions
3736,4.0,Under Construction,2164 ,24032,52000000.0,,Sector 150
3737,3.0,Under Construction,1227 ,40386,49500000.0,,Sector 150
3738,4.0,Under Construction,1927 ,24032,46300000.0,,Sector 150
3739,4.0,Under Construction,1615 ,38689,62400000.0,,Sector 150
3740,3.0,Under Construction,1675 ,12253,20500000.0,,Sector 150
3741,3.0,Under Construction,1850 ,12391,22900000.0,3 ,Sector 152
3742,3.0,Under Construction,1775 ,14998,26600000.0,2 ,Sector 152
3743,2.0,Under Construction,743 ,24032,17800000.0,,Sector 150
3744,3.0,Under Construction,1615 ,12263,19800000.0,2 ,Sector 150
3745,2.0,Under Construction,1350 ,13999,18800000.0,2 ,Sector 152
3746,3.0,Under Construction,1400 ,12303,17200000.0,3 ,Sector 150
3747,2.0,Ready to move,950 ,3368,3199000.0,,Sector 73
3748,3.0,Ready to move,1500 ,2800,4200000.0,1 ,Sector 73
3749,3.0,Ready to move,1250 ,5228,6535000.0,3 ,Sector 44
3750,3.0,Ready to move,1569 ,4843,7600000.0,2 ,Sector 75
3751,3.0,Under Construction,1272 ,5267,6700000.0,3 ,Sector 25 Yamuna Express Way
3752,4.0,Under Construction,1800 ,2888,5200000.0,3 ,Sector 86
3753,3.0,Ready to move,1125 ,4622,5200000.0,3 ,Sector 121
3754,4.0,Ready to move,2250 ,2577,5800000.0,5 ,Sector 46
3755,3.0,Ready to move,1275 ,5612,7156000.0,3 ,Sector 44
3756,3.0,Ready to move,1840 ,4475,8235000.0,3 ,Sector 44
3757,3.0,Ready to move,1305 ,4717,6156000.0,2 ,Sector 110
3758,3.0,Ready to move,1400 ,5109,7153000.0,2 ,Sector 73
3759,3.0,Ready to move,1550 ,4193,6500000.0,3 ,Sector 73
3760,3.0,Ready to move,1250 ,5228,6535000.0,3 ,Sector 44
3761,3.0,Ready to move,1569 ,4843,7600000.0,2 ,Sector 75
3762,3.0,Under Construction,1272 ,5267,6700000.0,3 ,Sector 25 Yamuna Express Way
3763,4.0,Under Construction,1800 ,2888,5200000.0,3 ,Sector 86
3764,3.0,Ready to move,1125 ,4622,5200000.0,3 ,Sector 121
3765,4.0,Ready to move,2250 ,2577,5800000.0,5 ,Sector 46
3766,3.0,Ready to move,1275 ,5612,7156000.0,3 ,Sector 44
3767,3.0,Ready to move,1840 ,4475,8235000.0,3 ,Sector 44
3768,3.0,Ready to move,1305 ,4717,6156000.0,2 ,Sector 110
3769,3.0,Ready to move,1400 ,5109,7153000.0,2 ,Sector 73
3770,3.0,Ready to move,1550 ,4193,6500000.0,3 ,Sector 73
3771,3.0,Ready to move,1780 ,4579,8152000.0,3 ,Sector 45
3772,3.0,Ready to move,1950 ,4436,8652000.0,3 ,Sector 104
3773,4.0,Under Construction,2645 ,4064,10700000.0,4 ,Sector 121
3774,4.0,Under Construction,3501 ,4081,14200000.0,4 ,Sector 107
3775,4.0,Under Construction,3220 ,4776,15300000.0,4 ,Sector 150
3776,2.0,Under Construction,1050 ,7000,7350000.0,,Sector 25 Yamuna Express Way
3777,4.0,Under Construction,2200 ,7000,15400000.0,,Sector 25 Yamuna Express Way
3778,3.0,Under Construction,1400 ,7000,9800000.0,,Sector 25 Yamuna Express Way
3779,4.0,Under Construction,3200 ,12226,39100000.0,,Sector 152
3780,3.0,Under Construction,2350 ,12308,28900000.0,,Sector 152
3781,3.0,Under Construction,1850 ,12391,22900000.0,3 ,Sector 152
3782,4.0,Under Construction,2625 ,4609,12100000.0,4 ,Sector 128
3783,3.0,Ready to move,1675 ,3811,6385000.0,3 ,Sector 137
3784,3.0,Under Construction,1907 ,4027,7680000.0,3 ,Sector 98
3785,3.0,Under Construction,1852 ,3023,5600000.0,2 ,Sector 150
3786,4.0,Ready to move,1985 ,4764,9458000.0,3 ,Sector 22D Yamuna Expressway
3787,3.0,Under Construction,2251 ,3776,8500000.0,2 ,Sector 150
3788,4.0,Ready to move,5300 ,4339,23000000.0,6 ,Sector 107
3789,4.0,Ready to move,2250 ,3733,8400000.0,5 ,Sector 46
3790,3.0,Ready to move,1963 ,3748,7358000.0,2 ,Sector 32
3791,3.0,Ready to move,1225 ,4069,4985000.0,2 ,Sector 121
3792,3.0,Under Construction,1272 ,4088,5200000.0,3 ,Sector 25 Yamuna Express Way
3793,3.0,Ready to move,1865 ,2841,5300000.0,2 ,sector-121 Noida
3794,2.0,Ready to move,1352 ,3106,4200000.0,2 ,Sector 82
3795,3.0,Ready to move,1475 ,4288,6325000.0,3 ,Sector 16
3796,3.0,Under Construction,1835 ,2814,5165000.0,3 ,Sector 79
3797,3.0,Ready to move,1560 ,4807,7500000.0,3 ,Sector 77
3798,3.0,Ready to move,1360 ,5437,7395000.0,2 ,Sector 137
3799,3.0,Ready to move,1285 ,6200,7968000.0,2 ,Sector 137
3800,3.0,Under Construction,1272 ,4088,5200000.0,3 ,Sector 25 Yamuna Express Way
3801,3.0,Ready to move,1865 ,2841,5300000.0,2 ,sector-121 Noida
3802,2.0,Ready to move,1352 ,3106,4200000.0,2 ,Sector 82
3803,3.0,Ready to move,1475 ,4288,6325000.0,3 ,Sector 16
3804,3.0,Under Construction,1835 ,2814,5165000.0,3 ,Sector 79
3805,3.0,Ready to move,1560 ,4807,7500000.0,3 ,Sector 77
3806,3.0,Ready to move,1360 ,5437,7395000.0,2 ,Sector 137
3807,3.0,Ready to move,1285 ,6200,7968000.0,2 ,Sector 137
3808,3.0,Under Construction,2040 ,4018,8197000.0,3 ,Sector 150
3809,3.0,Ready to move,2050 ,3895,7985000.0,3 ,Sector 137
3810,4.0,Under Construction,2009 ,3675,7385000.0,4 ,Sector 79
3811,3.0,Under Construction,2510 ,2782,6984000.0,3 ,Sector 75
3812,4.0,Ready to move,1958 ,4136,8100000.0,2 ,Sector 17B Yamuna Expressway
3813,2.0,Ready to move,1051 ,5042,5300000.0,2 ,Sector 73
3814,3.0,Ready to move,1852 ,3941,7300000.0,3 ,Sector 32
3815,4.0,Ready to move,3350 ,4238,14200000.0,5 ,Sector 50
3816,4.0,Under Construction,1800 ,2944,5300000.0,3 ,Sector 86
3817,3.0,Ready to move,1275 ,5614,7158000.0,2 ,Sector 121
3818,5.0,Ready to move,2852 ,3366,9600000.0,2 ,Sector 51
3819,3.0,Under Construction,1450 ,4348,6305000.0,3 ,Sector 74
3820,5.0,Under Construction,2563 ,3388,8685000.0,4 ,Sector 25A
3821,2.0,Ready to move,1054 ,4269,4500000.0,2 ,Sector 34
3822,3.0,Under Construction,1952 ,2746,5362000.0,2 ,Sector 17A Yamuna Expressway
3823,2.0,Under Construction,950 ,4615,4385000.0,2 ,Sector 73
3824,3.0,Ready to move,2250 ,3270,7358000.0,4 ,Sector 150
3825,2.0,Under Construction,1100 ,8693,9563000.0,2 ,Sector 150
3826,3.0,Ready to move,1523 ,4136,6300000.0,2 ,Sector 120
3827,3.0,Under Construction,1575 ,4984,7850000.0,3 ,Sector 150
3828,3.0,Ready to move,1125 ,5622,6325000.0,3 ,Sector 121
3829,3.0,Ready to move,1842 ,3086,5685000.0,3 ,Sector 130
3830,2.0,Ready to move,1000 ,4258,4258000.0,2 ,Sector 75
3831,3.0,Under Construction,1854 ,3883,7200000.0,3 ,Sector 32
3832,3.0,Under Construction,1580 ,8000,12600000.0,,Phase 2 Noida Extension
3833,4.0,Under Construction,2450 ,8000,19600000.0,,Phase 2 Noida Extension
3834,3.0,Under Construction,1895 ,8000,15100000.0,,Phase 2 Noida Extension
3835,3.0,Under Construction,1355 ,8000,10800000.0,,Phase 2 Noida Extension
3836,3.0,Under Construction,1600 ,8000,12800000.0,,Phase 2 Noida Extension
3837,3.0,Under Construction,1380 ,8262,11400000.0,2 ,Noida Extensions
3838,3.0,Under Construction,1549 ,8458,13100000.0,,Noida Extensions
3839,4.0,Under Construction,2038 ,8392,17100000.0,,Noida Extensions
3840,3.0,Under Construction,2130 ,6103,13000000.0,3 ,Sector 72
3841,3.0,Under Construction,2130 ,7323,15600000.0,3 ,Sector 132
3842,2.0,Ready to move,2020 ,6435,13000000.0,2 ,Noida Extensions
3843,3.0,Ready to move,1620 ,7283,11800000.0,2 ,Sector 121
3844,,Under Construction,1050 ,9523,10000000.0,1 ,Sector 62
3845,2.0,Ready to move,2066 ,12100,25000000.0,2 ,Sector 128
3846,3.0,Ready to move,1365 ,5860,8000000.0,3 ,Sector 134
3847,3.0,Under Construction,1365 ,5128,7000000.0,3 ,Sector 134
3848,2.0,Ready to move,1200 ,5166,6200000.0,2 ,Sector 62
3849,3.0,Under Construction,1404 ,9971,14000000.0,2 ,Sector 150
3850,3.0,Ready to move,1650 ,8181,13500000.0,3 ,Sector 79
3851,3.0,Under Construction,1675 ,9850,16500000.0,4 ,Sector 150
3852,3.0,Under Construction,1675 ,9850,16500000.0,4 ,Sector 150
3853,3.0,Ready to move,2070 ,9178,19000000.0,4 ,Sector 78
3854,3.0,Ready to move,1550 ,9677,15000000.0,2 ,Sector 75
3855,3.0,Under Construction,2062 ,10184,21000000.0,3 ,Sector 150
3856,3.0,Under Construction,2062 ,10184,21000000.0,3 ,Sector 150
3857,3.0,Under Construction,2062 ,10184,21000000.0,3 ,Sector 150
3858,2.0,Under Construction,1100 ,8363,9200000.0,2 ,Sector 150
3859,2.0,Under Construction,1050 ,3047,3200000.0,2 ,Noida Extensions
3860,4.0,Ready to move,3115 ,17174,53500000.0,4 ,Sector 104
3861,3.0,Under Construction,3011 ,16500,49600000.0,3 ,Sector 128
3862,3.0,Ready to move,1759 ,12507,22000000.0,3 ,Sector 104
3863,3.0,Ready to move,1759 ,12563,22100000.0,3 ,Sector 104
3864,4.0,Ready to move,2410 ,7468,18000000.0,4 ,Sector 76
3865,3.0,Under Construction,1404 ,9971,14000000.0,2 ,Sector 150
3866,3.0,Ready to move,1650 ,8181,13500000.0,3 ,Sector 79
3867,3.0,Under Construction,1675 ,9850,16500000.0,4 ,Sector 150
3868,3.0,Under Construction,1675 ,9850,16500000.0,4 ,Sector 150
3869,3.0,Ready to move,2070 ,9178,19000000.0,4 ,Sector 78
3870,3.0,Ready to move,1550 ,9677,15000000.0,2 ,Sector 75
3871,3.0,Under Construction,2062 ,10184,21000000.0,3 ,Sector 150
3872,3.0,Under Construction,2062 ,10184,21000000.0,3 ,Sector 150
3873,3.0,Under Construction,2062 ,10184,21000000.0,3 ,Sector 150
3874,2.0,Ready to move,1150 ,6521,7500000.0,2 ,Sector 93
3875,2.0,Ready to move,1100 ,8545,9400000.0,2 ,Sector 150
3876,3.0,Under Construction,1285 ,9182,11800000.0,2 ,Sector 150
3877,3.0,Under Construction,1575 ,9206,14500000.0,3 ,Sector 150
3878,3.0,Ready to move,1550 ,11096,17200000.0,3 ,Sector 93A
3879,3.0,Under Construction,1350 ,7703,10400000.0,2 ,Noida Extensions
3880,3.0,Ready to move,1750 ,10285,18000000.0,3 ,Sector 93A
3881,4.0,Ready to move,2535 ,13017,33000000.0,4 ,Sector 93A
3882,4.0,Ready to move,2806 ,15146,42500000.0,4 ,Sector 93A
3883,3.0,Ready to move,1750 ,11314,19800000.0,3 ,Sector 93A
3884,3.0,Ready to move,1655 ,12084,20000000.0,3 ,Sector 93A
3885,3.0,Ready to move,1500 ,16000,24000000.0,3 ,Sector 93A
3886,2.0,Ready to move,1250 ,10800,13500000.0,2 ,Sector 137
3887,3.0,Ready to move,1550 ,11290,17500000.0,3 ,Sector 93A
3888,3.0,Ready to move,1795 ,10863,19500000.0,3 ,Sector 93A
3889,2.0,Ready to move,1260 ,10714,13500000.0,2 ,Sector 93A
3890,2.0,Ready to move,1135 ,10572,12000000.0,2 ,Sector 93
3891,4.0,Ready to move,3500 ,11714,41000000.0,5 ,Sector 137
3892,3.0,Ready to move,1795 ,10584,19000000.0,3 ,Sector 93A
3893,3.0,Under Construction,1656 ,16000,26400000.0,2 ,Sector 75
3894,3.0,Under Construction,2450 ,10979,26900000.0,3 ,Sector 150
3895,2.0,Ready to move,995 ,6000,5970000.0,2 ,Tech Zone 4 Greater Noida Wes
3896,2.0,Under Construction,1012 ,5434,5500000.0,2 ,Sector 25 Yamuna Express Way
3897,3.0,Under Construction,2002 ,15984,32000000.0,3 ,Sector 146
3898,4.0,Under Construction,3619 ,23514,85100000.0,4 ,Sector 144
3899,2.0,Ready to move,1150 ,4480,5152000.0,2 ,Sector 22D Yamuna Expressway
3900,3.0,Ready to move,2700 ,16407,44300000.0,3 ,Sector 128
3901,3.0,Under Construction,1600 ,13937,22300000.0,3 ,Sector 143B
3902,3.0,Under Construction,2002 ,15984,32000000.0,3 ,Sector 146
3903,4.0,Under Construction,6100 ,14754,90000000.0,5 ,Sector 124
3904,4.0,Ready to move,2375 ,4336,10300000.0,4 ,Sector 137
3905,4.0,Ready to move,2200 ,4581,10000000.0,4 ,Phase 2 Noida Extension
3906,4.0,Ready to move,2096 ,4952,10300000.0,4 ,Sector 93
3907,3.0,Ready to move,1850 ,4947,9153000.0,3 ,Sector-118 Noida
3908,4.0,Ready to move,2060 ,4757,9800000.0,3 ,Phase 2 Noida Extension
3909,3.0,Ready to move,1790 ,4393,7865000.0,3 ,Phase 2 Noida Extension
3910,4.0,Ready to move,6000 ,4296,25700000.0,5 ,Sector 110
3911,4.0,Ready to move,2180 ,4765,10300000.0,3 ,Sector 73
3912,3.0,Under Construction,1990 ,4103,8165000.0,3 ,Sector 73
3913,2.0,Under Construction,2450 ,8163,20000000.0,3 ,Sector 150
3914,3.0,Under Construction,2319 ,28978,67200000.0,3 ,Sector 94
3915,4.0,Ready to move,2448 ,7965,19500000.0,5 ,Sector 121
3916,2.0,Under Construction,1050 ,3747,3934000.0,2 ,Noida Extn
3917,2.0,Ready to move,1160 ,3540,4106000.0,2 ,Phase 2 Noida Extension
3918,2.0,Under Construction,1350 ,6000,8100000.0,2 ,Sector 152
3919,4.0,Under Construction,2790 ,4700,13100000.0,4 ,Noida Extn
3920,2.0,Under Construction,920 ,3350,3082000.0,2 ,Noida Extn
3921,3.0,Ready to move,1440 ,3541,5100000.0,2 ,Phase 2 Noida Extension
3922,3.0,Under Construction,1295 ,3899,5049000.0,3 ,Block D Noida Extension
3923,2.0,Under Construction,1090 ,4536,4945000.0,2 ,Noida Extn
3924,2.0,Under Construction,1050 ,3898,4093000.0,2 ,Block D Noida Extension
3925,3.0,Under Construction,1675 ,3542,5934000.0,3 ,Noida Extn
3926,2.0,Under Construction,1215 ,10288,12500000.0,2 ,Sector 43
3927,3.0,Under Construction,1160 ,3350,3886000.0,2 ,Noida Extn
3928,3.0,Under Construction,1350 ,4225,5703000.0,3 ,Noida Extn
3929,3.0,Under Construction,1570 ,4225,6633000.0,3 ,Noida Extn
3930,3.0,Under Construction,2005 ,4225,8471000.0,3 ,Noida Extn
3931,2.0,Under Construction,1150 ,4224,4858000.0,2 ,Noida Extn
3932,2.0,Under Construction,1100 ,3080,3388000.0,2 ,Noida Extn
3933,4.0,Ready to move,2160 ,4185,9040000.0,4 ,Noida Extn
3934,2.0,Ready to move,995 ,3539,3522000.0,2 ,Phase 2 Noida Extension
3935,3.0,Ready to move,1390 ,3550,4934000.0,2 ,Tech Zone 4 Greater Noida Wes
3936,2.0,Under Construction,995 ,3738,3720000.0,2 ,Phase 2 Noida Extension
3937,2.0,Ready to move,1015 ,3540,3593000.0,2 ,Phase 2 Noida Extension
3938,2.0,Ready to move,1155 ,3805,4395000.0,2 ,Noida Extn
3939,4.0,Under Construction,1900 ,3225,6129000.0,4 ,Noida Extn
3940,3.0,Ready to move,1980 ,3805,7535000.0,3 ,Noida Extn
3941,3.0,Ready to move,1635 ,3825,6255000.0,3 ,Noida Extn
3942,3.0,Under Construction,1565 ,3793,5937000.0,3 ,Noida Extn
3943,2.0,Under Construction,1245 ,3770,4693000.0,2 ,Noida Extn
3944,3.0,Under Construction,1590 ,3079,4897000.0,3 ,Noida Extn
3945,2.0,Under Construction,1342 ,3599,4829000.0,2 ,Noida Extn
3946,2.0,Under Construction,1229 ,3599,4423000.0,2 ,Noida Extn
3947,4.0,Under Construction,2000 ,3750,7500000.0,4 ,Noida Extn
3948,3.0,Under Construction,1775 ,6366,11300000.0,3 ,Sector 152
3949,3.0,Under Construction,2088 ,9818,20500000.0,3 ,Sector 43
3950,3.0,Under Construction,1055 ,3350,3534000.0,2 ,Noida Extn
3951,3.0,Under Construction,1872 ,3599,6737000.0,3 ,Noida Extn
3952,3.0,Under Construction,1565 ,3599,5632000.0,3 ,Noida Extn
3953,3.0,Under Construction,1661 ,3599,5977000.0,3 ,Noida Extn
3954,4.0,Ready to move,1965 ,3550,6975000.0,4 ,Tech Zone 4 Greater Noida Wes
3955,2.0,Ready to move,950 ,3684,3500000.0,2 ,Tech Zone 4 Greater Noida Wes
3956,3.0,Under Construction,1200 ,3750,4500000.0,3 ,Noida Extn
3957,2.0,Under Construction,1115 ,3749,4181000.0,2 ,Noida Extn
3958,3.0,Ready to move,1935 ,5850,11300000.0,,Sector 25 Yamuna Express Way
3959,2.0,Ready to move,1115 ,5550,6188000.0,,Sector 25 Yamuna Express Way
3960,4.0,Ready to move,4350 ,5550,24100000.0,,Sector 25 Yamuna Express Way
3961,3.0,Ready to move,1850 ,5850,10800000.0,,Sector 25 Yamuna Express Way
3962,3.0,Ready to move,2400 ,5550,13300000.0,4 ,Sector 25 Yamuna Express Way
3963,2.0,Ready to move,1012 ,5550,5616000.0,2 ,Sector 25 Yamuna Express Way
3964,3.0,Ready to move,1425 ,5850,8336000.0,,Sector 25 Yamuna Express Way
3965,2.0,Ready to move,1140 ,5550,6327000.0,,Sector 25 Yamuna Express Way
3966,2.0,Ready to move,1000 ,5500,5500000.0,,Sector 25 Yamuna Express Way
3967,2.0,Under Construction,534 ,4868,2600000.0,,Noida Extensions
3968,3.0,Under Construction,891 ,5162,4600000.0,,Noida Extensions
3969,3.0,Under Construction,1380 ,8261,11400000.0,2 ,Noida Extensions
3970,3.0,Under Construction,1549 ,8457,13000000.0,,Noida Extensions
3971,4.0,Under Construction,2038 ,8391,17100000.0,,Noida Extensions
3972,4.0,Under Construction,2038 ,8392,17100000.0,,Noida Extensions
3973,3.0,Under Construction,1549 ,8458,13100000.0,,Noida Extensions
3974,3.0,Under Construction,1380 ,8262,11400000.0,2 ,Noida Extensions
3975,3.0,Under Construction,1380 ,8262,11400000.0,2 ,Noida Extensions
3976,3.0,Under Construction,1549 ,8458,13100000.0,,Noida Extensions
3977,4.0,Under Construction,2038 ,8392,17100000.0,,Noida Extensions
3978,2.0,Ready to move,1050 ,3047,3200000.0,2 ,Sector 45
3979,4.0,Ready to move,3590 ,5749,20600000.0,4 ,Sector 168
3980,2.0,Ready to move,875 ,3142,2750000.0,2 ,Sector 73
3981,3.0,Under Construction,1100 ,2954,3250000.0,3 ,Sector 162
3982,3.0,Ready to move,1400 ,2535,3550000.0,3 ,Sector 162
3983,3.0,Ready to move,1485 ,3300,4900000.0,3 ,Sector 75
3984,3.0,Ready to move,1595 ,3322,5300000.0,3 ,Sector 75
3985,3.0,Ready to move,1495 ,7023,10500000.0,2 ,Sector 75
3986,7.0,Ready to move,3100 ,7741,24000000.0,6 ,Sector 31
3987,3.0,Ready to move,1440 ,3200,4608000.0,3 ,Phase 2 Noida Extension
3988,9.0,Ready to move,3500 ,8571,30000000.0,9 ,Sector 27
3989,10.0,Ready to move,4200 ,7619,32000000.0,9 ,Sector 71
3990,7.0,Ready to move,4500 ,8888,40000000.0,8 ,Sector 50
3991,9.0,Ready to move,4500 ,4444,20000000.0,9 ,Sector 19
3992,10.0,Ready to move,4000 ,7250,29000000.0,9 ,Sector 27
3993,3.0,Ready to move,1685 ,4658,7850000.0,4 ,Sector 137
3994,1.0,Under Construction,650 ,3383,2199000.0,1 ,Sector 73
3995,2.0,Ready to move,900 ,2998,2699000.0,2 ,Sector 73
3996,2.0,Under Construction,1050 ,3332,3499000.0,2 ,Sector 73
3997,3.0,Ready to move,1500 ,15000,22500000.0,3 ,Sector 93A
3998,3.0,Ready to move,1750 ,14571,25500000.0,4 ,Sector 93A
3999,2.0,Ready to move,1100 ,3135,3449000.0,2 ,Sector 73
4000,1.0,Under Construction,650 ,3538,2300000.0,1 ,Sector 73
4001,3.0,Ready to move,1350 ,3332,4499000.0,3 ,Sector 73
4002,2.0,Ready to move,1000 ,2999,2999000.0,1 ,Sector 73
4003,5.0,Under Construction,6000 ,13666,82000000.0,5 ,Sector 124
4004,,New,1654 ,1986,3285000.0,,Sector 79
4005,,New,1800 ,1000,1800000.0,,Sector 143
4006,,New,900 ,1000,900000.0,,Sector 143
4007,,New,2700 ,1111,3000000.0,,Sector 143
4008,,New,1350 ,962,1300000.0,,Sector 143
4009,,New,2250 ,977,2200000.0,,Sector 143
4010,,New,650 ,692,450000.0,,Sector 143
4011,,New,8985 ,1103,9910000.0,,Sector 135
4012,,New,34317 ,1103,37800000.0,,Sector 135
4013,,New,36288 ,1103,40000000.0,,Sector 135
4014,,New,22878 ,1103,25200000.0,,Sector 135
4015,,New,18144 ,1103,20000000.0,,Sector 135
4016,,New,11439 ,1103,12600000.0,,Sector 135
4017,,New,9072 ,1103,10000000.0,,Sector 135
4018,,New,27216 ,1103,30000000.0,,Sector 135
4019,,New,45360 ,1103,50000000.0,,Sector 135
4020,,New,1800 ,2721,4897000.0,,Sector 22D Yamuna Expressway
4021,,New,900 ,3610,3249000.0,,Sector 22D Yamuna Expressway
4022,,New,1350 ,2888,3898000.0,,Sector 22D Yamuna Expressway
4023,,New,540 ,1444,780000.0,,Jewar Toll Plaza
4024,,New,900 ,1388,1250000.0,,Jewar Toll Plaza
4025,,New,900 ,666,600000.0,,Jewar Toll Plaza
4026,,New,900 ,500,450000.0,,Jewar Toll Plaza
4027,,New,900 ,611,550000.0,,Jewar Toll Plaza
4028,,New,900 ,388,350000.0,,Jewar Toll Plaza
4029,,New,450 ,388,175000.0,,Jewar Toll Plaza
4030,,New,594 ,1178,700000.0,,Sector 10 Greater Noida West
4031,,New,1800 ,1361,2450000.0,,Jewar Toll Plaza
4032,,New,540 ,1388,750000.0,,Jewar Toll Plaza
4033,,New,900 ,1500,1350000.0,,Jewar Toll Plaza
4034,,New,2700 ,1481,4000000.0,,Jewar Toll Plaza
4035,,New,1800 ,1500,2700000.0,,Jewar Toll Plaza
4036,,New,100 ,14000,1400000.0,,Jewar Toll Plaza
4037,,New,1350 ,1444,1950000.0,,Sector 10 Greater Noida West
4038,,New,100 ,16000,1600000.0,,Noida Extensions
4039,,New,900 ,1444,1300000.0,,Sector 10 Greater Noida West
4040,,New,27216 ,1103,30000000.0,,Sector 135
4041,,New,45360 ,1103,50000000.0,,Sector 135
4042,,New,1800 ,1000,1800000.0,,Sector 143
4043,,New,900 ,1000,900000.0,,Sector 143
4044,,New,2700 ,1111,3000000.0,,Sector 143
4045,,New,1350 ,962,1300000.0,,Sector 143
4046,,New,2250 ,977,2200000.0,,Sector 143
4047,,New,650 ,692,450000.0,,Sector 143
4048,,New,8985 ,1103,9910000.0,,Sector 135
4049,,New,34317 ,1103,37800000.0,,Sector 135
4050,,New,36288 ,1103,40000000.0,,Sector 135
4051,,New,22878 ,1103,25200000.0,,Sector 135
4052,,New,18144 ,1103,20000000.0,,Sector 135
4053,,New,11439 ,1103,12600000.0,,Sector 135
4054,,New,9072 ,1103,10000000.0,,Sector 135
4055,,Resale,1980 ,787,1560000.0,,Sector 19 Yamuna Expressway
4056,,Resale,1840 ,2805,5163000.0,,Sector 93A
4057,,Resale,180 ,6666,1200000.0,,Sector 15A
4058,,Resale,1780 ,760,1353000.0,,Phase 2 Noida Extension
4059,,New,1154 ,2036,2350000.0,,Sector 17A Yamuna Expressway
4060,,Resale,1145 ,2019,2312000.0,,Phase 2 Noida Extension
4061,,Resale,1123 ,4630,5200000.0,,Phase 2 Noida Extension
4062,,New,1458 ,2126,3100000.0,,Sector 22D Yamuna Expressway
4063,,New,1250 ,880,1100000.0,,Sector 150
4064,,New,1232 ,2029,2500000.0,,Sector-81 Noida
4065,,New,1352 ,1083,1465000.0,,Sector-81 Noida
4066,,Resale,1325 ,3094,4100000.0,,Phase 2 Noida Extension
4067,,Resale,1236 ,2750,3400000.0,,Sector-89 Noida
4068,,New,900 ,5333,4800000.0,,Sector 150
4069,,New,900 ,5000,4500000.0,,Sector 151
4070,2.0,Ready to move,1245 ,3453,4300000.0,2 ,Gaur City Road
4071,2.0,Ready to move,1250 ,3280,4100000.0,2 ,Sector 25 Yamuna Express Way
4072,2.0,Ready to move,995 ,2914,2900000.0,2 ,Sector 25 Yamuna Express Way
4073,,Ready to move,515 ,3689,1900000.0,1 ,Sector 25 Yamuna Express Way
4074,5.0,Under Construction,8200 ,7378,60500000.0,7 ,Sector 150
4075,5.0,Under Construction,8200 ,6707,55000000.0,6 ,Sector 150
4076,3.0,Ready to move,1700 ,2882,4900000.0,3 ,Noida Extn
4077,3.0,Under Construction,1580 ,8000,12600000.0,,Phase 2 Noida Extension
4078,4.0,Under Construction,2450 ,8000,19600000.0,,Phase 2 Noida Extension
4079,3.0,Under Construction,1895 ,8000,15100000.0,,Phase 2 Noida Extension
4080,3.0,Under Construction,1355 ,8000,10800000.0,,Phase 2 Noida Extension
4081,3.0,Under Construction,1600 ,8000,12800000.0,,Phase 2 Noida Extension
4082,4.0,Under Construction,3200 ,13226,42300000.0,4 ,Sector 150
4083,3.0,Under Construction,2350 ,13308,31200000.0,3 ,Sector 150
4084,3.0,Under Construction,1380 ,8262,11400000.0,2 ,Noida Extensions
4085,3.0,Under Construction,1549 ,8458,13100000.0,,Noida Extensions
4086,4.0,Under Construction,2038 ,8392,17100000.0,,Noida Extensions
4087,5.0,Ready to move,6300 ,16500,103900000.0,,Sector 75
4088,4.0,Ready to move,3300 ,16500,54400000.0,,Sector 75
4089,4.0,Ready to move,3030 ,16500,49900000.0,,Sector 75
4090,3.0,Ready to move,2510 ,16500,41400000.0,,Sector 75
4091,5.0,Ready to move,5300 ,16500,87400000.0,,Sector 75
4092,,New,1800 ,6111,11000000.0,,Sector 151
4093,,New,900 ,2777,2500000.0,,Bisrakh
4094,,New,900 ,388,350000.0,,Sector 150
4095,,New,450 ,388,175000.0,,Sector 150
4096,,New,450 ,388,175000.0,,Sector 150
4097,,New,900 ,388,350000.0,,Sector 150
4098,,New,900 ,2333,2100000.0,,Sector 17B Yamuna Expressway
4099,,Resale,4844 ,14866,72000000.0,,Sector 63 A
4100,,Resale,807 ,14405,11600000.0,,Sector 63 A
4101,,Resale,1744 ,15490,27000000.0,,Sector 122
4102,,Resale,1744 ,19506,34000000.0,,Sector 122
4103,,Resale,4844 ,13937,67500000.0,,Sector 72
4104,,Resale,2196 ,16400,36000000.0,,Sector 122
4105,,Resale,900 ,3333,3000000.0,,Sector 19 Yamuna Expressway
4106,,New,900 ,3888,3500000.0,,Sector 150
4107,,Resale,900 ,3888,3500000.0,,Sector 19 Yamuna Expressway
4108,,New,1800 ,3333,6000000.0,,Sector 22D Yamuna Expressway
4109,,New,900 ,3888,3500000.0,,Sector 17A Yamuna Expressway
4110,3.0,Under Construction,1625 ,3301,5365000.0,3 ,Sector 150
4111,3.0,Under Construction,1395 ,4480,6250000.0,2 ,Sector 150
4112,3.0,Ready to move,2548 ,8830,22500000.0,4 ,Sector 50
4113,5.0,Under Construction,8200 ,7195,59000000.0,5 ,Sector 150
4114,2.0,Under Construction,1165 ,4334,5050000.0,2 ,Sector 150
4115,2.0,Ready to move,953 ,4154,3959000.0,2 ,Sector 151
4116,4.0,Under Construction,6000 ,14166,85000000.0,4 ,Sector 124
4117,4.0,Under Construction,1890 ,3597,6800000.0,4 ,Sector 143
4118,,Resale,635 ,16259,10300000.0,,Sector 63 A
4119,,Resale,2336 ,13475,31400000.0,,Sector 63 A
4120,,Resale,3305 ,12079,39900000.0,,Sector 63 A
4121,,Resale,4844 ,12543,60700000.0,,Sector 63 A
4122,4.0,Ready to move,2691 ,11152,30000000.0,1 ,Sector 61
4123,4.0,Ready to move,3220 ,13999,45000000.0,,Sector 150
4124,3.0,Ready to move,1750 ,13999,24400000.0,,Sector 150
4125,3.0,Under Construction,1775 ,14998,26600000.0,2 ,Sector 152
4126,2.0,Under Construction,1350 ,13999,18800000.0,2 ,Sector 152
4127,4.0,Under Construction,3000 ,14900,44700000.0,4 ,Sector 107
4128,4.0,Under Construction,3720 ,14900,55400000.0,,Sector 107
4129,3.0,Under Construction,2500 ,14900,37200000.0,3 ,Sector 107
4130,4.0,Under Construction,2970 ,14900,44200000.0,4 ,Sector 107
4131,3.0,Under Construction,2575 ,14900,38300000.0,3 ,Sector 107
4132,4.0,Under Construction,3550 ,14900,52800000.0,,Sector 107
4133,4.0,Under Construction,6000 ,13583,81500000.0,5 ,Sector 124
4134,2.0,Under Construction,1650 ,3957,6530000.0,3 ,Phase 2 Noida Extension
4135,2.0,Ready to move,1227 ,4889,6000000.0,2 ,Sector 134
4136,3.0,Ready to move,1450 ,3103,4500000.0,2 ,Sector 44
4137,3.0,Ready to move,1450 ,3103,4500000.0,2 ,Sector 44
4138,2.0,Ready to move,950 ,3368,3200000.0,2 ,Sector 45
4139,2.0,Ready to move,950 ,3368,3200000.0,2 ,Sector 45
4140,3.0,Ready to move,1500 ,3066,4600000.0,3 ,Sector 44
4141,2.0,Ready to move,800 ,3250,2600000.0,2 ,Sector 44
4142,3.0,Ready to move,1762 ,7094,12500000.0,3 ,Sector 76
4143,6.0,Under Construction,8200 ,7134,58500000.0,6 ,Sector 150
4144,4.0,Under Construction,2367 ,6337,15000000.0,4 ,Sector 150
4145,4.0,Under Construction,2473 ,8087,20000000.0,4 ,Sector 150
4146,3.0,Ready to move,1690 ,11834,20000000.0,3 ,Sector 150
4147,2.0,Ready to move,1150 ,3217,3700000.0,,Sector 73
4148,1.0,Ready to move,600 ,4000,2400000.0,,Sector 73
4149,3.0,Ready to move,1020 ,4583,4674000.0,,Sector 73
4150,2.0,Ready to move,740 ,4595,3400000.0,,Sector 73
4151,4.0,Ready to move,1320 ,4636,6119000.0,,Sector 73
4152,3.0,Ready to move,1060 ,4571,4845000.0,,Sector 73
4153,3.0,Ready to move,1100 ,4559,5014000.0,,Sector 73
4154,2.0,Ready to move,820 ,4665,3825000.0,,Sector 73
4155,2.0,Ready to move,700 ,4614,3229000.0,,Sector 73
4156,3.0,Ready to move,1020 ,4583,4674000.0,,Sector 73
4157,2.0,Ready to move,740 ,4594,3399000.0,,Sector 73
4158,4.0,Ready to move,1320 ,4636,6119000.0,,Sector 73
4159,3.0,Ready to move,1060 ,4571,4845000.0,,Sector 73
4160,3.0,Ready to move,1100 ,4545,4999000.0,,Sector 73
4161,2.0,Ready to move,700 ,4614,3229000.0,,Sector 73
4162,2.0,Under Construction,1050 ,3619,3800000.0,,Sector 73
4163,2.0,Ready to move,950 ,3684,3500000.0,,Sector 104
4164,3.0,Ready to move,1350 ,3703,5000000.0,,Sector 104
4165,3.0,Under Construction,1380 ,8262,11400000.0,2 ,Noida Extensions
4166,3.0,Under Construction,1549 ,8458,13100000.0,,Noida Extensions
4167,4.0,Under Construction,2038 ,8392,17100000.0,,Noida Extensions
4168,,New,1350 ,1370,1850000.0,,Sector 143B
4169,,New,900 ,1333,1200000.0,,Sector 144
4170,,New,450 ,1444,650000.0,,Sector 144
4171,,New,1350 ,1370,1850000.0,,Sector 144
4172,,New,900 ,1388,1250000.0,,Sector 143B
4173,,New,450 ,1333,600000.0,,Sector 143
4174,,Resale,450 ,1444,650000.0,,Knowledge Park 3
4175,,Resale,900 ,1277,1150000.0,,Sector 142
4176,,Resale,450 ,1333,600000.0,,Sector 142
4177,,Resale,450 ,2777,1250000.0,,Sector-89 Noida
4178,,Resale,900 ,1222,1100000.0,,Sector 143
4179,,Resale,450 ,1333,600000.0,,Sector 142
4180,,Resale,900 ,1277,1150000.0,,Sector 142
4181,,Resale,900 ,2777,2500000.0,,Sector-89 Noida
4182,,Resale,720 ,277,200000.0,,Sector-89 Noida
4183,,Resale,1350 ,1222,1650000.0,,Sector 144
4184,,Resale,900 ,1222,1100000.0,,Sector 144
4185,,Resale,450 ,1222,550000.0,,Sector 144
4186,,New,900 ,444,400000.0,,Sector 149
4187,,New,900 ,444,400000.0,,Sector 150
4188,,New,900 ,444,400000.0,,Sector 150
4189,,New,765 ,388,297000.0,,Sector 149
4190,,New,630 ,388,245000.0,,Sector 150
4191,,New,1305 ,1111,1450000.0,,Sector 17A Yamuna Expressway
4192,,New,585 ,388,227000.0,,Sector 150
4193,,New,540 ,388,210000.0,,Sector 149
4194,,New,315 ,388,122000.0,,Sector 149
4195,,New,225 ,611,137000.0,,18 Yamuna Expressway
4196,5.0,Ready to move,4150 ,8192,34000000.0,4 ,Sector 50
4197,3.0,Ready to move,1675 ,9552,16000000.0,3 ,Sector 150
4198,3.0,Ready to move,1675 ,8656,14500000.0,3 ,Sector 150
4199,3.0,Ready to move,1690 ,7100,12000000.0,3 ,Sector 150
4200,4.0,Under Construction,2473 ,6065,15000000.0,4 ,Sector 150
4201,4.0,Under Construction,2473 ,6065,15000000.0,4 ,Sector 150
4202,4.0,Under Construction,2473 ,6065,15000000.0,4 ,Sector 150
4203,4.0,Under Construction,2473 ,6065,15000000.0,4 ,Sector 150
4204,4.0,Under Construction,2473 ,6065,15000000.0,4 ,Sector 150
4205,4.0,Under Construction,2473 ,6065,15000000.0,4 ,Sector 150
4206,3.0,Ready to move,1675 ,9552,16000000.0,3 ,Sector 150
4207,3.0,Ready to move,1675 ,8656,14500000.0,3 ,Sector 150
4208,3.0,Ready to move,1690 ,7100,12000000.0,3 ,Sector 150
4209,,New,4880 ,1999,9756000.0,,Sector 162
4210,,New,450 ,1777,800000.0,,Sector 123
4211,,New,630 ,1904,1200000.0,,Sector 123
4212,,New,900 ,1777,1600000.0,,Sector 123
4213,,New,900 ,1777,1600000.0,,Sector 123
4214,,New,540 ,1851,1000000.0,,Sector 123
4215,3.0,Under Construction,1575 ,6158,9700000.0,3 ,Sector 150
4216,3.0,Under Construction,1285 ,6225,8000000.0,2 ,Sector 150
4217,,Resale,900 ,2777,2500000.0,,Sector 81
4218,,New,900 ,1666,1500000.0,,Jewar Toll Plaza
4219,3.0,Ready to move,2548 ,9026,23000000.0,4 ,Sector 50
4220,2.0,Ready to move,930 ,3010,2800000.0,2 ,Sector 19 Yamuna Expressway
4221,1.0,Ready to move,592 ,3040,1800000.0,1 ,Yeida
4222,3.0,Ready to move,1365 ,6227,8500000.0,3 ,Sector 134
4223,4.0,Ready to move,1890 ,3690,6975000.0,5 ,Sector 22A Yamuna Expressway
4224,3.0,Ready to move,1295 ,3088,4000000.0,2 ,Sector 25 Yamuna Express Way
4225,,Resale,1800 ,1222,2200000.0,,Sector 148
4226,,Resale,1350 ,1222,1650000.0,,Sector 148
4227,,Resale,900 ,1222,1100000.0,,Sector 148
4228,,Resale,1800 ,1222,2200000.0,,Sector 142
4229,,New,1350 ,1259,1700000.0,,Sector 142
4230,,Resale,900 ,1222,1100000.0,,Sector 142
4231,,Resale,900 ,1222,1100000.0,,Sector 142
4232,,Resale,1800 ,1222,2200000.0,,Sector 144
4233,,Resale,450 ,1222,550000.0,,Sector 142
4234,,Resale,450 ,1333,600000.0,,Sector 144
4235,,Resale,1800 ,1277,2300000.0,,Sector 142
4236,,Resale,1350 ,1296,1750000.0,,Sector 142
4237,,Resale,900 ,1277,1150000.0,,Sector 148
4238,,Resale,450 ,1333,600000.0,,Sector 148
4239,,Resale,450 ,1222,550000.0,,Sector 142
4240,,New,1350 ,444,600000.0,,Noida Greater Noida Expressway
4241,,New,900 ,444,400000.0,,Sector 149
4242,,New,1575 ,444,700000.0,,Sector 149
4243,,New,1350 ,444,600000.0,,Sector 150
4244,,New,2250 ,444,1000000.0,,Sector150 Noida
4245,,New,2700 ,444,1200000.0,,noida expressway
4246,,New,1800 ,444,800000.0,,Sector 149
4247,,New,450 ,444,200000.0,,Sector 149
4248,,New,900 ,500,450000.0,,Sector 149
4249,,New,1800 ,777,1400000.0,,Sector 150
4250,,New,765 ,444,340000.0,,Sector 149
4251,,New,585 ,444,260000.0,,Sector 149
4252,,New,720 ,388,280000.0,,Sector 149
4253,,New,504 ,444,224000.0,,Sector 150
4254,,New,990 ,444,440000.0,,Sector 150
4255,,New,540 ,444,240000.0,,Sector 149
4256,,New,720 ,472,340000.0,,Sector 150
4257,,New,1800 ,444,800000.0,,Sector 150
4258,,New,1350 ,444,600000.0,,Sector 150
4259,,New,900 ,444,400000.0,,Sector 149
4260,,New,900 ,444,400000.0,,Sector 149
4261,,New,495 ,626,310000.0,,Sector 29
4262,,New,1035 ,611,632000.0,,Jewar Toll Plaza
4263,,New,990 ,606,600000.0,,Sector 150
4264,2.0,Ready to move,1125 ,3195,3594000.0,2 ,Sector 25 Yamuna Express Way
4265,3.0,Ready to move,1347 ,3414,4600000.0,3 ,Sector 151
4266,2.0,Under Construction,792 ,6637,5256000.0,,Noida Extensions
4267,3.0,Ready to move,1640 ,9990,16300000.0,,Sector 77
4268,3.0,Ready to move,2300 ,9990,22900000.0,,Sector 77
4269,3.0,Ready to move,1910 ,9990,19000000.0,,Sector 77
4270,3.0,Ready to move,1650 ,9990,16400000.0,,Sector 77
4271,5.0,Ready to move,4200 ,9990,41900000.0,,Sector 77
4272,3.0,Ready to move,2250 ,9990,22400000.0,,Sector 77
4273,3.0,Ready to move,1890 ,9990,18800000.0,,Sector 77
4274,5.0,Ready to move,3600 ,9990,35900000.0,,Sector 77
4275,2.0,Ready to move,1100 ,9990,10900000.0,2 ,Sector 77
4276,3.0,Ready to move,2270 ,9990,22600000.0,,Sector 77
4277,2.0,Ready to move,995 ,9990,9940000.0,,Sector 77
4278,3.0,Ready to move,2750 ,9990,27400000.0,,Sector 77
4279,3.0,Ready to move,1480 ,9990,14700000.0,,Sector 77
4280,4.0,Ready to move,2450 ,9990,24400000.0,,Sector 77
4281,4.0,Ready to move,2760 ,9990,27500000.0,,Sector 77
4282,3.0,Ready to move,2730 ,9990,27200000.0,,Sector 77
4283,2.0,Ready to move,1245 ,8500,10500000.0,,Sector 79
4284,3.0,Ready to move,2200 ,9990,21900000.0,,Sector 77
4285,4.0,Ready to move,2335 ,8500,19800000.0,3 ,Sector 79
4286,3.0,Ready to move,1330 ,9990,13200000.0,,Sector 77
4287,3.0,Ready to move,1575 ,9990,15700000.0,,Sector 77
4288,3.0,Ready to move,1645 ,8500,13900000.0,2 ,Sector 79
4289,3.0,Ready to move,1770 ,8950,15800000.0,,Sector 79
4290,3.0,Ready to move,1970 ,9990,19600000.0,,Sector 77
4291,5.0,Ready to move,2715 ,8500,23000000.0,1 ,Sector 79
4292,3.0,Ready to move,1580 ,9990,15700000.0,,Sector 77
4293,3.0,Ready to move,1650 ,8950,14700000.0,,Sector 79
4294,3.0,Ready to move,1895 ,8500,16100000.0,3 ,Sector 79
4295,2.0,Ready to move,1320 ,9990,13100000.0,,Sector 77
4296,2.0,Ready to move,1390 ,8950,12400000.0,,Sector 79
4297,3.0,Ready to move,1950 ,9990,19400000.0,,Sector 77
4298,2.0,Ready to move,1215 ,8500,10300000.0,,Sector 79
4299,2.0,Ready to move,1430 ,9990,14200000.0,,Sector 77
4300,3.0,Ready to move,1720 ,8950,15300000.0,,Sector 79
4301,3.0,Ready to move,1620 ,8500,13700000.0,,Sector 79
4302,2.0,Ready to move,1285 ,9990,12800000.0,,Sector 77
4303,2.0,Ready to move,1320 ,8950,11800000.0,,Sector 79
4304,2.0,Ready to move,1150 ,9990,11400000.0,2 ,Sector 77
4305,2.0,Ready to move,1385 ,8500,11700000.0,2 ,Sector 79
4306,3.0,Ready to move,1790 ,9990,17800000.0,,Sector 77
4307,2.0,Ready to move,1310 ,8950,11700000.0,,Sector 79
4308,3.0,Ready to move,1395 ,9990,13900000.0,,Sector 77
4309,3.0,Under Construction,2300 ,5434,12500000.0,4 ,Sector 150
4310,2.0,Ready to move,799 ,3347,2675000.0,2 ,Sector 25 Yamuna Express Way
4311,3.0,Ready to move,2415 ,3964,9573000.0,,Sector 151
4312,3.0,Ready to move,1347 ,4062,5472000.0,,Sector 151
4313,2.0,Ready to move,928 ,4163,3863000.0,,Sector 151
4314,3.0,Ready to move,1293 ,4072,5265000.0,,Sector 151
4315,3.0,Ready to move,1430 ,4049,5791000.0,,Sector 151
4316,2.0,Ready to move,1045 ,3500,3657000.0,2 ,Sector 75
4317,3.0,Ready to move,2525 ,3500,8837000.0,5 ,Sector 75
4318,2.0,Ready to move,1082 ,4436,4800000.0,1 ,Sector 137
4319,3.0,Ready to move,1295 ,4478,5800000.0,2 ,Sector 137
4320,3.0,Under Construction,2319 ,28029,65000000.0,3 ,Sector 94
4321,3.0,Under Construction,2319 ,28029,65000000.0,3 ,Sector 94
4322,3.0,Under Construction,2319 ,28029,65000000.0,3 ,Sector 94
4323,3.0,Under Construction,2319 ,28029,65000000.0,3 ,Sector 94
4324,3.0,Under Construction,2319 ,28029,65000000.0,3 ,Sector 94
4325,4.0,Ready to move,2800 ,9821,27500000.0,4 ,Sector 50
4326,4.0,Ready to move,3515 ,5120,18000000.0,4 ,Sector 143
4327,2.0,Ready to move,1175 ,6808,8000000.0,2 ,Sector 143
4328,3.0,Ready to move,1700 ,9117,15500000.0,3 ,Sector 143B
4329,3.0,Ready to move,1545 ,8414,13000000.0,3 ,Sector 143
4330,3.0,Ready to move,1545 ,8414,13000000.0,3 ,Sector 143
4331,3.0,Ready to move,1545 ,8414,13000000.0,3 ,Sector 143
4332,4.0,Ready to move,3085 ,3144,9700000.0,4 ,Sector 25 Yamuna Express Way
4333,4.0,Ready to move,1895 ,3060,5800000.0,5 ,Sector 22A Yamuna Expressway
4334,3.0,Under Construction,1800 ,16611,29900000.0,3 ,Sector 146
4335,4.0,Under Construction,3250 ,13846,45000000.0,4 ,Sector 146
4336,4.0,Under Construction,3250 ,13846,45000000.0,4 ,Sector 146
4337,4.0,Under Construction,3250 ,13846,45000000.0,4 ,Sector 146
4338,3.0,Under Construction,3270 ,18746,61300000.0,3 ,Sector 94
4339,3.0,Under Construction,3270 ,18746,61300000.0,3 ,Sector 94
4340,3.0,Under Construction,3270 ,18746,61300000.0,3 ,Sector 94
4341,3.0,Under Construction,3270 ,18746,61300000.0,3 ,Sector 94
4342,3.0,Under Construction,3270 ,18746,61300000.0,3 ,Sector 94
4343,3.0,Under Construction,3270 ,18746,61300000.0,3 ,Sector 94
4344,3.0,Under Construction,3270 ,18746,61300000.0,3 ,Sector 94
4345,3.0,Under Construction,3270 ,18746,61300000.0,3 ,Sector 94
4346,3.0,Under Construction,3270 ,18746,61300000.0,3 ,Sector 94
4347,3.0,Under Construction,3270 ,18746,61300000.0,3 ,Sector 94
4348,3.0,Under Construction,3270 ,18746,61300000.0,3 ,Sector 94
4349,3.0,Under Construction,3270 ,18746,61300000.0,3 ,Sector 94
4350,3.0,Under Construction,3270 ,18746,61300000.0,3 ,Sector 94
4351,3.0,Under Construction,3270 ,19296,63100000.0,3 ,Sector 94
4352,3.0,Under Construction,3270 ,18746,61300000.0,3 ,Sector 94
4353,3.0,Under Construction,1800 ,16611,29900000.0,3 ,Sector 146
4354,3.0,Under Construction,1800 ,16611,29900000.0,3 ,Sector 146
4355,3.0,Under Construction,1800 ,16611,29900000.0,3 ,Sector 146
4356,3.0,Under Construction,1800 ,16611,29900000.0,3 ,Sector 146
4357,3.0,Under Construction,1800 ,16666,30000000.0,3 ,Sector 146
4358,3.0,Under Construction,1800 ,16611,29900000.0,3 ,Sector 146
4359,3.0,Under Construction,1800 ,16611,29900000.0,3 ,Sector 146
4360,3.0,Under Construction,1800 ,16611,29900000.0,3 ,Sector 146
4361,3.0,Under Construction,1800 ,16611,29900000.0,3 ,Sector 146
4362,3.0,Under Construction,1800 ,16611,29900000.0,3 ,Sector 146
4363,3.0,Under Construction,1800 ,16611,29900000.0,3 ,Sector 146
4364,3.0,Under Construction,1800 ,16611,29900000.0,3 ,Sector 146
4365,3.0,Under Construction,1800 ,16611,29900000.0,3 ,Sector 146
4366,3.0,Under Construction,1800 ,16611,29900000.0,3 ,Sector 146
4367,3.0,Under Construction,1800 ,16611,29900000.0,3 ,Sector 146
4368,3.0,Under Construction,1800 ,16611,29900000.0,3 ,Sector 146
4369,3.0,Under Construction,1800 ,16611,29900000.0,3 ,Sector 146
4370,3.0,Under Construction,1800 ,16611,29900000.0,3 ,Sector 146
4371,3.0,Under Construction,1800 ,16611,29900000.0,3 ,Sector 146
4372,3.0,Under Construction,1800 ,16611,29900000.0,3 ,Sector 146
4373,3.0,Under Construction,1800 ,16611,29900000.0,3 ,Sector 146
4374,3.0,Under Construction,1800 ,16611,29900000.0,3 ,Sector 146
4375,3.0,Under Construction,1800 ,16611,29900000.0,3 ,Sector 146
4376,3.0,Under Construction,1800 ,16611,29900000.0,3 ,Sector 146
4377,3.0,Under Construction,3270 ,18318,59900000.0,3 ,Sector 94
4378,3.0,Under Construction,3270 ,18318,59900000.0,3 ,Sector 94
4379,3.0,Under Construction,3270 ,18318,59900000.0,3 ,Sector 94
4380,3.0,Under Construction,3270 ,18318,59900000.0,3 ,Sector 94
4381,3.0,Under Construction,3270 ,18318,59900000.0,3 ,Sector 94
4382,3.0,Under Construction,3270 ,18318,59900000.0,3 ,Sector 94
4383,3.0,Under Construction,3270 ,18318,59900000.0,3 ,Sector 94
4384,3.0,Under Construction,3270 ,18318,59900000.0,3 ,Sector 94
4385,3.0,Under Construction,3270 ,18318,59900000.0,3 ,Sector 94
4386,3.0,Under Construction,3270 ,18318,59900000.0,3 ,Sector 94
4387,3.0,Under Construction,3270 ,18318,59900000.0,3 ,Sector 94
4388,5.0,Under Construction,5935 ,17994,106800000.0,5 ,Sector 94
4389,5.0,Under Construction,5935 ,17994,106800000.0,5 ,Sector 94
4390,5.0,Under Construction,5935 ,17994,106800000.0,5 ,Sector 94
4391,5.0,Under Construction,5935 ,17994,106800000.0,5 ,Sector 94
4392,5.0,Under Construction,5935 ,17994,106800000.0,5 ,Sector 94
4393,5.0,Under Construction,5935 ,17994,106800000.0,5 ,Sector 94
4394,5.0,Under Construction,5935 ,17994,106800000.0,5 ,Sector 94
4395,5.0,Under Construction,5935 ,17994,106800000.0,5 ,Sector 94
4396,5.0,Under Construction,5935 ,17994,106800000.0,5 ,Sector 94
4397,3.0,Under Construction,1800 ,16611,29900000.0,3 ,Sector 146
4398,4.0,Under Construction,3250 ,13846,45000000.0,4 ,Sector 146
4399,4.0,Under Construction,3250 ,13846,45000000.0,4 ,Sector 146
4400,4.0,Under Construction,3250 ,13846,45000000.0,4 ,Sector 146
4401,4.0,Under Construction,3250 ,13846,45000000.0,4 ,Sector 146
4402,4.0,Under Construction,3250 ,13846,45000000.0,4 ,Sector 146
4403,4.0,Under Construction,3250 ,13846,45000000.0,4 ,Sector 146
4404,3.0,Under Construction,1800 ,16611,29900000.0,3 ,Sector 146
4405,3.0,Under Construction,1800 ,16611,29900000.0,3 ,Sector 146
4406,3.0,Ready to move,1925 ,3500,6737000.0,4 ,Sector 75
4407,2.0,Ready to move,2350 ,5531,13000000.0,2 ,rho 2
4408,3.0,Under Construction,1580 ,8000,12600000.0,,Phase 2 Noida Extension
4409,4.0,Under Construction,2450 ,8000,19600000.0,,Phase 2 Noida Extension
4410,3.0,Under Construction,1545 ,7250,11200000.0,2 ,Noida Extensions
4411,3.0,Under Construction,1895 ,8000,15100000.0,,Phase 2 Noida Extension
4412,3.0,Under Construction,1350 ,7250,9787000.0,2 ,Noida Extensions
4413,3.0,Under Construction,1355 ,8000,10800000.0,,Phase 2 Noida Extension
4414,4.0,Under Construction,2010 ,7250,14500000.0,,Noida Extensions
4415,3.0,Under Construction,1600 ,8000,12800000.0,,Phase 2 Noida Extension
4416,3.0,Under Construction,1800 ,16611,29900000.0,3 ,Sector 146
4417,3.0,Under Construction,1800 ,16611,29900000.0,3 ,Sector 146
4418,3.0,Under Construction,1800 ,16611,29900000.0,3 ,Sector 146
4419,3.0,Under Construction,1800 ,16611,29900000.0,3 ,Sector 146
4420,3.0,Under Construction,1800 ,16611,29900000.0,3 ,Sector 146
4421,3.0,Under Construction,1800 ,16611,29900000.0,3 ,Sector 146
4422,3.0,Under Construction,1800 ,16611,29900000.0,3 ,Sector 146
4423,3.0,Under Construction,1800 ,16611,29900000.0,3 ,Sector 146
4424,3.0,Under Construction,1800 ,16611,29900000.0,3 ,Sector 146
4425,4.0,Under Construction,3250 ,13846,45000000.0,4 ,Sector 146
4426,4.0,Under Construction,3250 ,13846,45000000.0,4 ,Sector 146
4427,4.0,Under Construction,3250 ,13846,45000000.0,4 ,Sector 146
4428,4.0,Under Construction,3250 ,13846,45000000.0,4 ,Sector 146
4429,4.0,Under Construction,3250 ,13846,45000000.0,4 ,Sector 146
4430,4.0,Under Construction,3250 ,13846,45000000.0,4 ,Sector 146
4431,4.0,Under Construction,3250 ,13846,45000000.0,4 ,Sector 146
4432,4.0,Under Construction,3250 ,13846,45000000.0,4 ,Sector 146
4433,5.0,Ready to move,3085 ,3403,10500000.0,5 ,Sector 25 Yamuna Express Way
4434,3.0,Under Construction,1800 ,16611,29900000.0,3 ,Sector 146
4435,,New,1350 ,3777,5100000.0,,Sector 22D Yamuna Expressway
4436,,New,900 ,2666,2400000.0,,Sector 19 Yamuna Expressway
4437,3.0,Ready to move,2300 ,4347,10000000.0,3 ,Sector 150
4438,4.0,Ready to move,1450 ,2068,3000000.0,3 ,Sector 152
4439,4.0,Ready to move,1550 ,2000,3100000.0,3 ,Sector 150
4440,3.0,Ready to move,1575 ,2539,4000000.0,3 ,Sector 150
4441,5.0,Ready to move,1600 ,6250,10000000.0,3 ,Sector 150
4442,4.0,Ready to move,1600 ,2187,3500000.0,3 ,Sector 150
4443,4.0,Ready to move,1550 ,1935,3000000.0,3 ,Sector 150
4444,5.0,Ready to move,1600 ,2000,3200000.0,3 ,Sector 150
4445,5.0,Ready to move,1600 ,2500,4000000.0,3 ,Sector 150
4446,3.0,Ready to move,1350 ,3185,4300000.0,3 ,Sector 73
4447,1.0,Ready to move,600 ,3250,1950000.0,1 ,Sector 73
4448,1.0,Ready to move,625 ,2640,1650000.0,1 ,Sector 73
4449,2.0,Ready to move,1050 ,2904,3050000.0,2 ,Sector 73
4450,4.0,Under Construction,6150 ,13821,85000000.0,4 ,Sector 124
4451,5.0,Ready to move,5500 ,5527,30400000.0,5 ,Sector 150
4452,3.0,Under Construction,1370 ,44744,61300000.0,3 ,Sector 94
4453,3.0,Under Construction,3270 ,18746,61300000.0,3 ,Sector 94
4454,3.0,Under Construction,3270 ,18746,61300000.0,3 ,Sector 94
4455,3.0,Under Construction,3270 ,18746,61300000.0,3 ,Sector 94
4456,3.0,Under Construction,3270 ,18746,61300000.0,3 ,Sector 94
4457,2.0,Ready to move,1925 ,2805,5400000.0,2 ,Sector 137
4458,3.0,Ready to move,1750 ,6000,10500000.0,3 ,Sector 137
4459,3.0,Ready to move,1750 ,6285,11000000.0,3 ,Sector 137
4460,3.0,Ready to move,1750 ,6285,11000000.0,3 ,Sector 137
4461,3.0,Ready to move,1750 ,6342,11100000.0,3 ,Sector 137
4462,3.0,Under Construction,3270 ,18746,61300000.0,3 ,Sector 94
4463,3.0,Under Construction,3270 ,18746,61300000.0,3 ,Sector 94
4464,3.0,Under Construction,3270 ,18746,61300000.0,3 ,Sector 94
4465,3.0,Under Construction,1800 ,16611,29900000.0,3 ,Sector 146
4466,3.0,Under Construction,2319 ,26908,62400000.0,3 ,Sector 94
4467,3.0,Under Construction,2319 ,26908,62400000.0,3 ,Sector 94
4468,3.0,Under Construction,3270 ,19113,62500000.0,3 ,Sector 94
4469,3.0,Under Construction,3270 ,19082,62400000.0,3 ,Sector 94
4470,3.0,Under Construction,3200 ,19531,62500000.0,3 ,Sector 94
4471,3.0,Under Construction,3200 ,19531,62500000.0,3 ,Sector 94
4472,3.0,Under Construction,3200 ,19531,62500000.0,3 ,Sector 94
4473,3.0,Under Construction,3200 ,19531,62500000.0,3 ,Sector 94
4474,3.0,Under Construction,3200 ,19531,62500000.0,3 ,Sector 94
4475,3.0,Under Construction,3270 ,19113,62500000.0,3 ,Sector 94
4476,3.0,Under Construction,3270 ,19113,62500000.0,3 ,Sector 94
4477,3.0,Under Construction,3270 ,19113,62500000.0,3 ,Sector 94
4478,3.0,Under Construction,3270 ,19113,62500000.0,3 ,Sector 94
4479,3.0,Under Construction,3270 ,19113,62500000.0,3 ,Sector 94
4480,3.0,Ready to move,1600 ,9062,14500000.0,3 ,Sector 143B
4481,3.0,Ready to move,1600 ,9062,14500000.0,3 ,Sector 143B
4482,3.0,Ready to move,1600 ,9375,15000000.0,3 ,Sector 143B
4483,3.0,Ready to move,1425 ,9824,14000000.0,3 ,Sector 143B
4484,3.0,Ready to move,1503 ,7000,10500000.0,,Sector 120
4485,3.0,Ready to move,1578 ,7000,11000000.0,2 ,Sector 120
4486,3.0,Ready to move,1584 ,7000,11000000.0,2 ,Sector 120
4487,2.0,Ready to move,1317 ,7000,9219000.0,,Sector 120
4488,3.0,Ready to move,1493 ,7000,10400000.0,2 ,Sector 120
4489,2.0,Ready to move,1093 ,7000,7651000.0,2 ,Sector 120
4490,2.0,Ready to move,1316 ,7000,9212000.0,2 ,Sector 120
4491,3.0,Ready to move,1498 ,7000,10400000.0,,Sector 120
4492,3.0,Ready to move,1670 ,7000,11600000.0,,Sector 120
4493,1.0,Ready to move,590 ,7000,4130000.0,,Sector 120
4494,3.0,Ready to move,1810 ,7000,12600000.0,,Sector 120
4495,2.0,Ready to move,1154 ,7000,8078000.0,,Sector 120
4496,3.0,Ready to move,1815 ,7000,12700000.0,,Sector 120
4497,3.0,Ready to move,1784 ,7000,12400000.0,3 ,Sector 120
4498,1.0,Ready to move,585 ,7000,4095000.0,1 ,Sector 120
4499,,New,1800 ,1332,2398000.0,,Jewar Toll Plaza
4500,,New,1800 ,1332,2398000.0,,Jewar Toll Plaza
4501,,New,5400 ,4629,25000000.0,,Sector 143
4502,,New,900 ,5000,4500000.0,,Sector 143
4503,,New,2700 ,4444,12000000.0,,Sector 143
4504,,New,900 ,5000,4500000.0,,Sector 143
4505,,New,4500 ,5555,25000000.0,,Sector 143
4506,,New,1350 ,4444,6000000.0,,Sector 143
4507,,New,1800 ,4444,8000000.0,,Sector 143B
4508,,New,1800 ,4444,8000000.0,,Sector 143
4509,,New,900 ,4666,4200000.0,,Sector 143
4510,,New,900 ,4444,4000000.0,,Sector 19 Yamuna Expressway
4511,,New,12150 ,493,6000000.0,,Sector 138
4512,,New,1350 ,4444,6000000.0,,Sector 138
4513,5.0,Ready to move,5000 ,6200,31000000.0,6 ,Sector 150
4514,5.0,Ready to move,4570 ,3282,15000000.0,7 ,Sector 22A Yamuna Expressway
4515,2.0,Ready to move,975 ,2681,2614000.0,2 ,Sector 25 Yamuna Express Way
4516,,Ready to move,515 ,3786,1950000.0,1 ,Sector 25 Yamuna Express Way
4517,4.0,Ready to move,1890 ,3492,6600000.0,5 ,Sector 22A Yamuna Expressway
4518,1.0,Ready to move,550 ,5090,2800000.0,1 ,Sector 77
4519,,New,1350 ,4222,5700000.0,,Sector 19 Yamuna Expressway
4520,,Resale,1292 ,386,500000.0,,Yeida
4521,,New,2250 ,666,1500000.0,,Jewar Toll Plaza
4522,,New,70 ,25714,1800000.0,,Sector 17A Yamuna Expressway
4523,,New,16200 ,493,8000000.0,,Sector 143
4524,,New,1800 ,2500,4500000.0,,Sector 17A Yamuna Expressway
4525,,New,900 ,2777,2500000.0,,Sector 17A Yamuna Expressway
4526,,New,300 ,33333,10000000.0,,Sector 19 Yamuna Expressway
4527,,New,100 ,40000,4000000.0,,Sector 19 Yamuna Expressway
4528,,New,200 ,35000,7000000.0,,Sector 19 Yamuna Expressway
4529,,New,200 ,37500,7500000.0,,Sector 19 Yamuna Expressway
4530,,New,200 ,35000,7000000.0,,Sector 19 Yamuna Expressway
4531,5.0,Under Construction,8200 ,7134,58500000.0,5 ,Sector 150
4532,3.0,Ready to move,2548 ,9497,24200000.0,4 ,Sector 50
4533,2.0,Ready to move,799 ,3222,2575000.0,2 ,Sector 25 Yamuna Express Way
4534,,New,585 ,333,195000.0,,Sector 149
4535,5.0,Ready to move,1890 ,3465,6550000.0,4 ,Sector 25 Yamuna Express Way
4536,5.0,Ready to move,3085 ,3079,9500000.0,4 ,Sector 25 Yamuna Express Way
4537,,New,900 ,2444,2200000.0,,Sector 17A Yamuna Expressway
4538,,New,1650 ,2727,4500000.0,,Sector 150
4539,1.0,Ready to move,790 ,4936,3899000.0,1 ,Sector 22D Yamuna Expressway
4540,,New,225 ,333,0.0,,Sector 150
4541,4.0,Under Construction,3250 ,13846,45000000.0,4 ,Sector 146
4542,4.0,Under Construction,3250 ,13846,45000000.0,4 ,Sector 146
4543,4.0,Under Construction,3250 ,13846,45000000.0,4 ,Sector 146
4544,4.0,Under Construction,3250 ,13846,45000000.0,4 ,Sector 146
4545,4.0,Under Construction,3250 ,13846,45000000.0,4 ,Sector 146
4546,4.0,Under Construction,3250 ,13846,45000000.0,4 ,Sector 146
4547,4.0,Under Construction,3250 ,13846,45000000.0,4 ,Sector 146
4548,4.0,Under Construction,3250 ,13846,45000000.0,4 ,Sector 146
4549,3.0,Ready to move,1295 ,2992,3875000.0,3 ,Sector 25 Yamuna Express Way
4550,,Ready to move,515 ,3466,1785000.0,1 ,Sector 22A Yamuna Expressway
4551,4.0,Ready to move,1890 ,3544,6700000.0,4 ,Sector 25 Yamuna Express Way
4552,2.0,Ready to move,985 ,6598,6500000.0,2 ,Sector 78
4553,2.0,Ready to move,1108 ,6137,6800000.0,2 ,Sector 93
4554,2.0,Ready to move,1023 ,6842,7000000.0,2 ,Sector 108
4555,2.0,Ready to move,1023 ,6842,7000000.0,2 ,Sector 108
4556,2.0,Ready to move,1200 ,5666,6800000.0,2 ,Sector 82
4557,3.0,Ready to move,1971 ,11669,23000000.0,4 ,Sector 77
4558,2.0,Ready to move,1165 ,8194,9547000.0,2 ,Sector 150
4559,3.0,Under Construction,1800 ,15555,28000000.0,3 ,Sector 146
4560,3.0,Under Construction,3047 ,16376,49900000.0,4 ,Sector 128
4561,2.0,Under Construction,1400 ,12142,17000000.0,2 ,Sector 150
4562,3.0,Ready to move,1509 ,8283,12500000.0,2 ,Sector 62
4563,2.0,Ready to move,1200 ,3500,4200000.0,2 ,Sector 53
4564,2.0,Ready to move,1201 ,3330,4000000.0,2 ,Sector 53
4565,4.0,Ready to move,2495 ,6613,16400000.0,5 ,Sector 74
4566,5.0,Ready to move,4572 ,3455,15800000.0,5 ,Sector 22A Yamuna Expressway
4567,5.0,Ready to move,3085 ,3695,11400000.0,5 ,Sector 25 Yamuna Express Way
4568,2.0,Ready to move,925 ,2593,2399000.0,2 ,Sector 121
4569,4.0,Ready to move,2490 ,3815,9500000.0,5 ,Sector 22A Yamuna Expressway
4570,3.0,Under Construction,1465 ,4499,6592000.0,4 ,Sector 143
4571,2.0,Ready to move,1025 ,4878,5000000.0,2 ,Sector 144
4572,2.0,Ready to move,799 ,2753,2200000.0,2 ,Sector 22A Yamuna Expressway
4573,4.0,Ready to move,3277 ,11443,37500000.0,4 ,Sector 110
4574,5.0,Ready to move,3280 ,7621,25000000.0,6 ,Sector 76
4575,2.0,Ready to move,955 ,6178,5900000.0,2 ,Sector 137
4576,9.0,Ready to move,9000 ,4444,40000000.0,9 ,Sector 116
4577,2.0,Ready to move,1035 ,6763,7000000.0,2 ,Sector 76
4578,3.0,Under Construction,1285 ,10505,13500000.0,2 ,Sector 150
4579,3.0,Ready to move,4195 ,6912,29000000.0,4 ,Sector 76
4580,2.0,Ready to move,1015 ,6206,6300000.0,2 ,Sector 76
4581,4.0,Ready to move,2410 ,6307,15200000.0,4 ,Sector 76
4582,2.0,Ready to move,800 ,3250,2600000.0,2 ,Sector 49
4583,3.0,Ready to move,1545 ,8090,12500000.0,3 ,Sector 76
4584,3.0,Ready to move,1102 ,5989,6600000.0,2 ,Phase 2 Noida Extension
4585,2.0,Under Construction,1270 ,13228,16800000.0,2 ,Sector 150
4586,2.0,Ready to move,890 ,8426,7500000.0,2 ,Sector 137
4587,,Ready to move,450 ,6000,2700000.0,1 ,Sector 150
4588,3.0,Under Construction,2500 ,14600,36500000.0,3 ,Sector 146
4589,2.0,Ready to move,2000 ,800,1600000.0,2 ,Sector 49
4590,2.0,Ready to move,1000 ,2800,2800000.0,2 ,Sector 73
4591,2.0,Ready to move,850 ,3294,2800000.0,2 ,Sector 49
4592,2.0,Ready to move,1150 ,8260,9500000.0,2 ,Sector 74
4593,2.0,Ready to move,1100 ,8454,9300000.0,2 ,sector 25
4594,2.0,Ready to move,1045 ,6500,6792000.0,2 ,Sector 22D Yamuna Expressway
4595,5.0,Ready to move,3000 ,12000,36000000.0,5 ,Sector 36
4596,3.0,Ready to move,1365 ,6593,9000000.0,3 ,Sector 137
4597,3.0,Ready to move,1584 ,4596,7280000.0,3 ,Sector 16B
4598,5.0,Ready to move,5500 ,5363,29500000.0,5 ,Sector 150
4599,,Resale,3229 ,15794,51000000.0,,Sector 105
4600,,Resale,1744 ,20080,35000000.0,,Sector 50
4601,,Resale,4844 ,15486,75000000.0,,Sector 30
4602,,Resale,2153 ,19516,42000000.0,,Sector 30
4603,,Resale,1744 ,17211,30000000.0,,Sector 108
4604,,Resale,1744 ,17785,31000000.0,,Sector 108
4605,4.0,Ready to move,1890 ,3333,6300000.0,5 ,Sector 22A Yamuna Expressway
4606,,New,900 ,10000,9000000.0,,Sector 128
4607,,New,900 ,3333,3000000.0,,Sector 166
4608,,New,900 ,10000,9000000.0,,Sector 133
4609,,New,900 ,3333,3000000.0,,Sector 166
4610,,New,900 ,3333,3000000.0,,Sector 166
4611,,New,900 ,3333,3000000.0,,Sector 166
4612,,New,1800 ,3388,6100000.0,,Sector 166
4613,,New,900 ,3333,3000000.0,,Sector 166
4614,,New,900 ,3555,3200000.0,,Sector 143
4615,,New,900 ,10000,9000000.0,,Sector 137
4616,,New,900 ,10000,9000000.0,,Sector 128
4617,,New,1800 ,10000,18000000.0,,Sector 128
4618,,New,4950 ,2727,13500000.0,,Sector 17A Yamuna Expressway
4619,,New,621 ,2898,1800000.0,,Sector 17A Yamuna Expressway
4620,,New,1350 ,2814,3800000.0,,Sector 17A Yamuna Expressway
4621,,New,1080 ,2592,2800000.0,,Sector 17A Yamuna Expressway
4622,,New,900 ,2469,2222000.0,,Sector 25 Yamuna Express Way
4623,,New,900 ,7222,6500000.0,,Sector 151
4624,,New,2250 ,3377,7600000.0,,Sector 166
4625,,New,2700 ,3407,9200000.0,,Sector 166
4626,,New,900 ,3333,3000000.0,,Sector 166
4627,,New,2700 ,3407,9200000.0,,Sector 166
4628,,New,900 ,10222,9200000.0,,Sector 128
4629,,New,621 ,2882,1790000.0,,Sector 17A Yamuna Expressway
4630,,New,9000 ,466,4200000.0,,Sector 132
4631,,New,2700 ,2777,7500000.0,,Sector 17A Yamuna Expressway
4632,,New,4500 ,2666,12000000.0,,Sector 17A Yamuna Expressway
4633,,New,621 ,2898,1800000.0,,Sector 17A Yamuna Expressway
4634,,New,1260 ,3174,4000000.0,,Sector 17A Yamuna Expressway
4635,,New,2250 ,2666,6000000.0,,Sector 17A Yamuna Expressway
4636,,New,2700 ,2518,6800000.0,,Sector 17A Yamuna Expressway
4637,,New,918 ,2831,2599000.0,,Sector 17A Yamuna Expressway
4638,,New,1800 ,2555,4600000.0,,Sector 17A Yamuna Expressway
4639,,New,1800 ,2500,4500000.0,,Sector 17A Yamuna Expressway
4640,,New,1450 ,1793,2600000.0,,Sector 17A Yamuna Expressway
4641,,New,900 ,1666,1500000.0,,Sector 17B Yamuna Expressway
4642,,New,900 ,2444,2200000.0,,Sector 17A Yamuna Expressway
4643,,New,3600 ,2361,8500000.0,,Sector 17A Yamuna Expressway
4644,,New,900 ,2444,2200000.0,,Sector 17A Yamuna Expressway
4645,,New,900 ,2444,2200000.0,,Sector 17A Yamuna Expressway
4646,,New,1450 ,1517,2200000.0,,Sector 17A Yamuna Expressway
4647,,New,1350 ,1777,2400000.0,,Sector 17A Yamuna Expressway
4648,,New,4050 ,2345,9500000.0,,Sector 17A Yamuna Expressway
4649,2.0,Ready to move,1050 ,4285,4500000.0,2 ,Sector 44
4650,4.0,Ready to move,3200 ,6250,20000000.0,4 ,Sector 150
4651,2.0,Ready to move,1050 ,4285,4500000.0,2 ,Sector 44
4652,,Ready to move,555 ,6486,3600000.0,1 ,Sector 137
4653,3.0,Ready to move,1685 ,4569,7700000.0,3 ,Sector 137
4654,2.0,Ready to move,1045 ,4593,4800000.0,2 ,Sector 137
4655,2.0,Ready to move,1045 ,4593,4800000.0,2 ,Sector 137
4656,3.0,Ready to move,1425 ,4561,6500000.0,3 ,Sector 137
4657,3.0,Ready to move,1425 ,4701,6700000.0,3 ,Sector 137
4658,3.0,Ready to move,1425 ,4771,6800000.0,3 ,Sector 137
4659,2.0,Ready to move,1045 ,4617,4825000.0,2 ,Sector 137
4660,2.0,Ready to move,1045 ,4641,4850000.0,2 ,Sector 137
4661,2.0,Ready to move,973 ,5138,5000000.0,2 ,Sector 137
4662,5.0,Ready to move,6750 ,6666,45000000.0,5 ,Sector 79
4663,3.0,Ready to move,1775 ,5352,9500000.0,3 ,Sector 119
4664,4.0,Ready to move,3085 ,3209,9900000.0,6 ,Sector 22A Yamuna Expressway
4665,,New,150 ,4500,675000.0,,Sector 149
4666,4.0,Ready to move,1890 ,3306,6250000.0,4 ,Sector 25 Yamuna Express Way
4667,3.0,Ready to move,1750 ,10000,17500000.0,3 ,Sector 93A
4668,3.0,Ready to move,1895 ,6068,11500000.0,3 ,Sector 137
4669,2.0,Ready to move,1050 ,6000,6300000.0,2 ,Sector 62
4670,1.0,Ready to move,600 ,3416,2050000.0,1 ,Sector 49
4671,2.0,Ready to move,1000 ,3000,3000000.0,2 ,Sector 49
4672,2.0,Ready to move,1050 ,3619,3800000.0,2 ,Sector 49
4673,3.0,Ready to move,1500 ,3333,5000000.0,2 ,Sector 49
4674,3.0,Ready to move,1730 ,4949,8562000.0,3 ,Sector 107
4675,3.0,Ready to move,2140 ,4187,8962000.0,3 ,Sector 73
4676,4.0,Ready to move,2150 ,5144,11000000.0,4 ,Sector 62
4677,3.0,Ready to move,1940 ,4364,8468000.0,3 ,Sector 166
4678,4.0,Under Construction,2460 ,5040,12400000.0,4 ,Sector 121
4679,3.0,Under Construction,1359 ,5267,7158000.0,3 ,Sector 32
4680,3.0,Ready to move,1940 ,4364,8468000.0,3 ,Sector 166
4681,4.0,Under Construction,2460 ,5040,12400000.0,4 ,Sector 121
4682,3.0,Under Construction,1359 ,5267,7158000.0,3 ,Sector 32
4683,4.0,Ready to move,2370 ,4064,9632000.0,3 ,Sector-81 Noida
4684,3.0,Ready to move,1740 ,4566,7945000.0,3 ,Sector 74
4685,3.0,Under Construction,2010 ,4458,8961000.0,3 ,Sector 128
4686,3.0,Ready to move,1200 ,5475,6571000.0,3 ,Sector 44
4687,3.0,Under Construction,1780 ,4919,8756000.0,3 ,Phase 2 Noida Extension
4688,3.0,Under Construction,1424 ,5235,7456000.0,3 ,Sector 22D Yamuna Expressway
4689,4.0,Under Construction,2295 ,4894,11200000.0,4 ,Sector 143
4690,3.0,Ready to move,1890 ,4630,8751000.0,3 ,Sector 62
4691,4.0,Ready to move,2655 ,5099,13500000.0,5 ,Sector 143B
4692,3.0,Ready to move,1550 ,5782,8963000.0,3 ,Sector 62
4693,3.0,Ready to move,1450 ,4738,6871000.0,3 ,Sector 62
4694,3.0,Under Construction,1540 ,4553,7012000.0,3 ,Sector 49
4695,4.0,Ready to move,2270 ,5440,12300000.0,3 ,Sector 79
4696,3.0,Ready to move,1880 ,4183,7865000.0,3 ,Sector 44
4697,3.0,Ready to move,1985 ,4600,9132000.0,3 ,Sector 79
4698,4.0,Under Construction,5575 ,3808,21200000.0,5 ,Sector 96
4699,3.0,Under Construction,1770 ,4511,7985000.0,3 ,Sector 79
4700,3.0,Ready to move,1650 ,4948,8165000.0,3 ,Sector 118
4701,3.0,Ready to move,1285 ,5720,7351000.0,3 ,Sector 121
4702,3.0,Ready to move,1277 ,5151,6578000.0,2 ,Sector 137
4703,3.0,Ready to move,1295 ,4903,6350000.0,2 ,Sector 25 Yamuna Express Way
4704,3.0,Under Construction,1870 ,3934,7358000.0,3 ,Sector 74
4705,4.0,Ready to move,3150 ,4311,13500000.0,3 ,Sector 50
4706,4.0,Ready to move,3350 ,3955,13200000.0,5 ,Sector 50
4707,3.0,Ready to move,1695 ,4987,8453000.0,3 ,Sector 121
4708,3.0,Ready to move,1740 ,4517,7860000.0,3 ,Sector 150
4709,3.0,Ready to move,1720 ,5026,8645000.0,3 ,Sector 135
4710,3.0,Under Construction,1740 ,4685,8153000.0,3 ,Sector 70
4711,3.0,Under Construction,2646 ,4244,11200000.0,3 ,Urbainia Trinity Noida Extension Yakubpur Noida
4712,3.0,Under Construction,1840 ,4429,8150000.0,3 ,Sector 17A Yamuna Expressway
4713,3.0,Under Construction,1487 ,5482,8153000.0,3 ,Sector 150
4714,3.0,Ready to move,2250 ,3669,8256000.0,4 ,Sector 150
4715,4.0,Ready to move,3350 ,3653,12200000.0,5 ,Sector 50
4716,4.0,Ready to move,3350 ,4567,15300000.0,5 ,Sector 50
4717,3.0,Ready to move,1575 ,5493,8652000.0,3 ,Sector 150
4718,3.0,Ready to move,1840 ,4430,8153000.0,3 ,Sector 73
4719,4.0,Ready to move,4656 ,3833,17800000.0,4 ,Sector 119
4720,4.0,Ready to move,2950 ,4508,13300000.0,4 ,Sector 137
4721,3.0,Ready to move,1950 ,4592,8956000.0,3 ,Sector 50
4722,3.0,Ready to move,1880 ,4444,8356000.0,3 ,Sector 121
4723,3.0,Ready to move,1850 ,4837,8950000.0,3 ,Sector 121
4724,3.0,Ready to move,3250 ,5846,19000000.0,3 ,Sector 150
4725,3.0,Ready to move,1575 ,8571,13500000.0,3 ,Sector 150
4726,4.0,Under Construction,2130 ,4208,8965000.0,3 ,Sector 81
4727,3.0,Ready to move,1600 ,5097,8156000.0,3 ,Sector 50
4728,3.0,Under Construction,1958 ,4574,8956000.0,3 ,Sector 150
4729,3.0,Ready to move,1720 ,4449,7653000.0,3 ,Sector 135
4730,3.0,Ready to move,1880 ,4292,8070000.0,3 ,Sector 79
4731,3.0,Ready to move,1250 ,4960,6200000.0,1 ,Sector 73
4732,3.0,Ready to move,1980 ,4122,8163000.0,3 ,Sector 73
4733,3.0,Ready to move,1730 ,4949,8562000.0,3 ,Sector 107
4734,3.0,Ready to move,2140 ,4187,8962000.0,3 ,Sector 73
4735,4.0,Ready to move,2150 ,5144,11000000.0,4 ,Sector 62
4736,3.0,Ready to move,1940 ,4364,8468000.0,3 ,Sector 166
4737,4.0,Under Construction,2460 ,5040,12400000.0,4 ,Sector 121
4738,3.0,Under Construction,1359 ,5267,7158000.0,3 ,Sector 32
4739,4.0,Ready to move,2370 ,4064,9632000.0,3 ,Sector-81 Noida
4740,4.0,Ready to move,3350 ,4567,15300000.0,5 ,Sector 50
4741,3.0,Ready to move,1575 ,5493,8652000.0,3 ,Sector 150
4742,3.0,Ready to move,1840 ,4430,8153000.0,3 ,Sector 73
4743,4.0,Ready to move,4656 ,3833,17800000.0,4 ,Sector 119
4744,4.0,Ready to move,2950 ,4508,13300000.0,4 ,Sector 137
4745,3.0,Ready to move,1950 ,4592,8956000.0,3 ,Sector 50
4746,3.0,Ready to move,1880 ,4444,8356000.0,3 ,Sector 121
4747,3.0,Ready to move,1850 ,4837,8950000.0,3 ,Sector 121
4748,3.0,Ready to move,3250 ,5846,19000000.0,3 ,Sector 150
4749,3.0,Ready to move,1575 ,8571,13500000.0,3 ,Sector 150
4750,4.0,Under Construction,2130 ,4208,8965000.0,3 ,Sector 81
4751,3.0,Ready to move,1600 ,5097,8156000.0,3 ,Sector 50
4752,3.0,Under Construction,1958 ,4574,8956000.0,3 ,Sector 150
4753,3.0,Ready to move,1720 ,4449,7653000.0,3 ,Sector 135
4754,3.0,Under Construction,1450 ,4662,6760000.0,3 ,Sector 81
4755,3.0,Under Construction,1240 ,5770,7156000.0,2 ,Ambedkar City
4756,4.0,Under Construction,2175 ,4452,9685000.0,3 ,Sector 76
4757,3.0,Under Construction,1840 ,3890,7158000.0,3 ,Sector 73
4758,4.0,Under Construction,1098 ,7500,8235000.0,4 ,Sector 143
4759,3.0,Ready to move,1850 ,4845,8965000.0,3 ,Sector 166
4760,3.0,Ready to move,1540 ,4968,7652000.0,3 ,Sector 62
4761,3.0,Ready to move,2050 ,4068,8340000.0,3 ,Sector 137
4762,4.0,Under Construction,2195 ,4261,9354000.0,3 ,Sector 137
4763,4.0,Under Construction,1700 ,4501,7652000.0,3 ,Sector 81
4764,3.0,Ready to move,1740 ,4732,8235000.0,3 ,Sector 32
4765,3.0,Ready to move,1600 ,5231,8370000.0,,Sector 62
4766,3.0,Ready to move,1680 ,4306,7235000.0,3 ,Sector 81
4767,4.0,Ready to move,2080 ,4067,8460000.0,3 ,Sector 137
4768,3.0,Ready to move,1750 ,4657,8150000.0,3 ,Sector-50 Noida
4769,4.0,Ready to move,4182 ,3751,15600000.0,4 ,Sector 50
4770,4.0,Ready to move,2200 ,4197,9235000.0,4 ,Sector 62
4771,3.0,Ready to move,1550 ,4420,6852000.0,3 ,Sector 73
4772,3.0,Under Construction,1850 ,4648,8600000.0,3 ,Sector 128
4773,4.0,Under Construction,2906 ,4251,12300000.0,4 ,Sector 128
4774,3.0,Under Construction,1575 ,4786,7538000.0,3 ,Sector 150
4775,3.0,Under Construction,1710 ,4473,7650000.0,3 ,Phase 2 Noida Extension
4776,3.0,Ready to move,1150 ,5330,6130000.0,2 ,Sector 161
4777,3.0,Under Construction,2525 ,4906,12300000.0,3 ,Sector 25 Yamuna Express Way
4778,3.0,Ready to move,1617 ,4425,7156000.0,3 ,Sector 100
4779,3.0,Ready to move,1650 ,5189,8562000.0,3 ,Sector 10
4780,3.0,Ready to move,1850 ,4845,8965000.0,3 ,Sector 166
4781,3.0,Ready to move,1540 ,4968,7652000.0,3 ,Sector 62
4782,3.0,Ready to move,2050 ,4068,8340000.0,3 ,Sector 137
4783,4.0,Under Construction,2195 ,4261,9354000.0,3 ,Sector 137
4784,4.0,Under Construction,1700 ,4501,7652000.0,3 ,Sector 81
4785,3.0,Ready to move,1740 ,4732,8235000.0,3 ,Sector 32
4786,3.0,Ready to move,1600 ,5231,8370000.0,,Sector 62
4787,3.0,Ready to move,1680 ,4306,7235000.0,3 ,Sector 81
4788,4.0,Ready to move,2080 ,4067,8460000.0,3 ,Sector 137
4789,3.0,Ready to move,1750 ,4657,8150000.0,3 ,Sector-50 Noida
4790,4.0,Ready to move,4182 ,3751,15600000.0,4 ,Sector 50
4791,4.0,Ready to move,2200 ,4197,9235000.0,4 ,Sector 62
4792,3.0,Ready to move,1550 ,4420,6852000.0,3 ,Sector 73
4793,3.0,Under Construction,1850 ,4648,8600000.0,3 ,Sector 128
4794,4.0,Under Construction,2906 ,4251,12300000.0,4 ,Sector 128
4795,3.0,Under Construction,1575 ,4786,7538000.0,3 ,Sector 150
4796,3.0,Under Construction,1710 ,4473,7650000.0,3 ,Phase 2 Noida Extension
4797,3.0,Ready to move,1150 ,5330,6130000.0,2 ,Sector 161
4798,3.0,Under Construction,2525 ,4906,12300000.0,3 ,Sector 25 Yamuna Express Way
4799,3.0,Ready to move,1617 ,4425,7156000.0,3 ,Sector 100
4800,3.0,Ready to move,1650 ,5189,8562000.0,3 ,Sector 10
4801,4.0,Ready to move,5300 ,3501,18500000.0,6 ,Sector 107
4802,3.0,Under Construction,1575 ,5476,8625000.0,3 ,Sector 150
4803,4.0,Ready to move,2250 ,4380,9856000.0,3 ,Sector 168
4804,3.0,Ready to move,1840 ,5243,9648000.0,3 ,Sector 163
4805,3.0,Ready to move,1870 ,4896,9156000.0,3 ,Sector 73
4806,4.0,Ready to move,2380 ,4705,11200000.0,3 ,Sector 81
4807,3.0,Ready to move,1675 ,4982,8346000.0,3 ,Sector 150
4808,3.0,Ready to move,1275 ,5700,7268000.0,3 ,Sector 44
4809,4.0,Under Construction,3220 ,4223,13600000.0,4 ,Sector 150
4810,4.0,Under Construction,2350 ,4808,11300000.0,3 ,Sector 90
4811,3.0,Under Construction,1850 ,4947,9153000.0,3 ,Sector 150
4812,3.0,Under Construction,1770 ,4028,7130000.0,3 ,Sector 22D Yamuna Expressway
4813,5.0,Ready to move,4260 ,3873,16500000.0,3 ,Sector 143B
4814,3.0,Ready to move,1765 ,4099,7235000.0,2 ,Sector 73
4815,2.0,Ready to move,850 ,6164,5240000.0,2 ,Sector 123
4816,4.0,Ready to move,2340 ,4274,10000000.0,3 ,Sector 123
4817,3.0,Under Construction,1495 ,4787,7158000.0,2 ,Sector 74
4818,3.0,Ready to move,1650 ,4948,8165000.0,3 ,Sector 118
4819,3.0,Ready to move,1285 ,5720,7351000.0,3 ,Sector 121
4820,3.0,Ready to move,1277 ,5151,6578000.0,2 ,Sector 137
4821,3.0,Ready to move,1295 ,4903,6350000.0,2 ,Sector 25 Yamuna Express Way
4822,3.0,Under Construction,1870 ,3934,7358000.0,3 ,Sector 74
4823,4.0,Ready to move,3150 ,4311,13500000.0,3 ,Sector 50
4824,4.0,Ready to move,3350 ,3955,13200000.0,5 ,Sector 50
4825,3.0,Ready to move,1695 ,4987,8453000.0,3 ,Sector 121
4826,3.0,Ready to move,1740 ,4517,7860000.0,3 ,Sector 150
4827,3.0,Ready to move,1720 ,5026,8645000.0,3 ,Sector 135
4828,3.0,Under Construction,1740 ,4685,8153000.0,3 ,Sector 70
4829,3.0,Under Construction,2646 ,4244,11200000.0,3 ,Urbainia Trinity Noida Extension Yakubpur Noida
4830,3.0,Under Construction,1840 ,4429,8150000.0,3 ,Sector 17A Yamuna Expressway
4831,3.0,Under Construction,1487 ,5482,8153000.0,3 ,Sector 150
4832,3.0,Ready to move,2250 ,3669,8256000.0,4 ,Sector 150
4833,4.0,Ready to move,3350 ,3653,12200000.0,5 ,Sector 50
4834,4.0,Ready to move,3350 ,4567,15300000.0,5 ,Sector 50
4835,3.0,Ready to move,1575 ,5493,8652000.0,3 ,Sector 150
4836,3.0,Ready to move,1840 ,4430,8153000.0,3 ,Sector 73
4837,4.0,Ready to move,4656 ,3833,17800000.0,4 ,Sector 119
4838,4.0,Ready to move,2950 ,4508,13300000.0,4 ,Sector 137
4839,3.0,Ready to move,1950 ,4592,8956000.0,3 ,Sector 50
4840,3.0,Ready to move,1890 ,4331,8186000.0,3 ,Sector 44
4841,4.0,Under Construction,1780 ,4713,8390000.0,4 ,Sector 86
4842,3.0,Under Construction,1450 ,4933,7153000.0,4 ,Sector 25 Yamuna Express Way
4843,3.0,Ready to move,1400 ,4395,6153000.0,2 ,Sector 73
4844,3.0,Under Construction,2095 ,4370,9156000.0,4 ,Sector 25 Yamuna Express Way
4845,3.0,Ready to move,2350 ,4121,9685000.0,4 ,Sector 110
4846,4.0,Ready to move,2587 ,4746,12200000.0,5 ,Sector 110
4847,4.0,Ready to move,2010 ,4455,8956000.0,3 ,Sector 73
4848,3.0,Ready to move,1880 ,4601,8650000.0,3 ,Sector 73
4849,4.0,Under Construction,2320 ,4353,10100000.0,3 ,Sector 129
4850,3.0,Under Construction,1664 ,4585,7630000.0,4 ,Sector 22D Yamuna Expressway
4851,3.0,Under Construction,1839 ,4269,7852000.0,3 ,Sector 70
4852,3.0,Ready to move,1850 ,4570,8456000.0,3 ,Sector 44
4853,3.0,Ready to move,1860 ,4602,8560000.0,3 ,Sector-144 Noida
4854,3.0,Ready to move,1760 ,4064,7153000.0,3 ,Sector 17B Yamuna Expressway
4855,3.0,Ready to move,1780 ,4808,8560000.0,3 ,Sector 25 Yamuna Express Way
4856,4.0,Ready to move,2300 ,4869,11200000.0,5 ,Sector 129
4857,3.0,Under Construction,1295 ,5289,6850000.0,2 ,Sector 144
4858,3.0,Under Construction,1600 ,4726,7562000.0,3 ,Sector 25 Yamuna Express Way
4859,3.0,Ready to move,1770 ,4837,8562000.0,3 ,Sector 121
4860,3.0,Ready to move,1662 ,4951,8230000.0,3 ,Ambedkar City
4861,3.0,Ready to move,2150 ,4883,10500000.0,3 ,Sector 93A
4862,4.0,Ready to move,4150 ,4397,18200000.0,5 ,Sector 93B
4863,3.0,Under Construction,1600 ,4470,7153000.0,3 ,Urbainia Trinity Noida Extension Yakubpur Noida
4864,4.0,Under Construction,2264 ,5000,11300000.0,4 ,Sector 98
4865,3.0,Under Construction,1761 ,5197,9153000.0,4 ,Sector 119
4866,4.0,Ready to move,1910 ,4483,8563000.0,3 ,Sector 119
4867,4.0,Ready to move,3250 ,4369,14200000.0,4 ,Sector 93A
4868,3.0,Ready to move,1350 ,4535,6123000.0,,Sector 62
4869,4.0,Ready to move,4500 ,4333,19500000.0,4 ,Sector 168
4870,3.0,Ready to move,1940 ,4622,8968000.0,3 ,Sector 93B
4871,3.0,Ready to move,1700 ,5384,9153000.0,3 ,Sector 50
4872,2.0,Ready to move,1246 ,5273,6571000.0,2 ,Sector 119
4873,3.0,Ready to move,1860 ,4112,7650000.0,3 ,Sector 166
4874,4.0,Under Construction,2450 ,5040,12300000.0,3 ,Sector 32
4875,3.0,Ready to move,1780 ,4580,8153000.0,3 ,Sector-50 Noida
4876,4.0,Under Construction,4270 ,4215,18000000.0,5 ,Sector 74
4877,3.0,Under Construction,1825 ,4909,8960000.0,3 ,Sector 93B
4878,4.0,Under Construction,2200 ,5295,11600000.0,4 ,Sector 25 Yamuna Express Way
4879,3.0,Ready to move,1600 ,5095,8153000.0,3 ,Sector 78
4880,4.0,Ready to move,2700 ,4585,12300000.0,5 ,Sector 75
4881,3.0,Ready to move,1560 ,4907,7656000.0,3 ,Phase 2 Noida Extension
4882,2.0,Under Construction,900 ,5070,4563000.0,2 ,Sector 49
4883,4.0,Ready to move,2280 ,4322,9856000.0,3 ,Sector 82
4884,4.0,Under Construction,2175 ,4452,9685000.0,3 ,Sector 76
4885,4.0,Ready to move,2000 ,4431,8863000.0,5 ,Sector 86
4886,4.0,Ready to move,3475 ,4512,15600000.0,4 ,Sector 150
4887,3.0,Under Construction,1600 ,4990,7985000.0,3 ,Sector 25 Yamuna Express Way
4888,3.0,Ready to move,1740 ,4244,7385000.0,3 ,Sector 121
4889,3.0,Ready to move,1840 ,4720,8685000.0,3 ,Sector-144 Noida
4890,4.0,Under Construction,1800 ,4961,8930000.0,3 ,Sector 86
4891,3.0,Ready to move,1680 ,4854,8156000.0,3 ,Sector 26 Yamuna Expressway
4892,3.0,Ready to move,1750 ,4946,8656000.0,3 ,Sector 17B Yamuna Expressway
4893,3.0,Ready to move,1890 ,4738,8956000.0,3 ,Sector 144
4894,4.0,Under Construction,3799 ,3569,13500000.0,6 ,Sector 96
4895,3.0,Ready to move,1398 ,8726,12200000.0,2 ,Sector 78
4896,2.0,Under Construction,1150 ,5163,5938000.0,2 ,Sector 25 Yamuna Express Way
4897,3.0,Ready to move,2500 ,4612,11500000.0,3 ,Sector 107
4898,3.0,Ready to move,1560 ,5104,7963000.0,2 ,Sector 61
4899,3.0,Ready to move,1500 ,4842,7263000.0,3 ,Sector 62
4900,3.0,Ready to move,1500 ,4842,7263000.0,3 ,Sector 62
4901,3.0,Under Construction,1780 ,4851,8635000.0,3 ,Sector 70
4902,3.0,Ready to move,1775 ,5049,8963000.0,3 ,Sector 119
4903,4.0,Ready to move,2580 ,4263,11000000.0,3 ,Sector 61
4904,4.0,Ready to move,2250 ,4542,10200000.0,3 ,Sector 82
4905,3.0,Ready to move,1350 ,4557,6153000.0,,Sector 62
4906,2.0,Ready to move,1100 ,4136,4550000.0,2 ,Sector 62
4907,3.0,Under Construction,1850 ,4847,8968000.0,3 ,Sector 86
4908,3.0,Ready to move,1765 ,4645,8200000.0,3 ,Sector 93
4909,4.0,Ready to move,2094 ,4980,10400000.0,4 ,Sector 61
4910,3.0,Ready to move,1980 ,4526,8963000.0,3 ,Sector-62 Noida
4911,4.0,Ready to move,3000 ,4333,13000000.0,4 ,Sector 45
4912,3.0,Under Construction,2555 ,4336,11000000.0,3 ,Sector 150
4913,4.0,Ready to move,2250 ,4622,10400000.0,4 ,Sector 61
4914,2.0,Ready to move,765 ,6712,5135000.0,2 ,Sector 102
4915,2.0,Ready to move,700 ,7661,5363000.0,2 ,Sector 53
4916,4.0,Ready to move,2800 ,4471,12500000.0,4 ,Sector 50
4917,3.0,Ready to move,1500 ,5042,7563000.0,3 ,Sector 62
4918,3.0,Ready to move,1500 ,5088,7632000.0,3 ,Sector 50
4919,3.0,Ready to move,1880 ,4061,7635000.0,3 ,Sector 93
4920,3.0,Under Construction,1850 ,5169,9563000.0,3 ,Sector 152
4921,3.0,Under Construction,1675 ,5761,9650000.0,4 ,Sector 150
4922,3.0,Ready to move,1990 ,4347,8652000.0,3 ,Sector-49 Noida
4923,1.0,Ready to move,500 ,5712,2856000.0,1 ,Sector 17A Yamuna Expressway
4924,3.0,Ready to move,1250 ,4908,6135000.0,3 ,Sector 44
4925,4.0,Under Construction,2665 ,4577,12200000.0,4 ,Sector 150
4926,4.0,Under Construction,3200 ,4218,13500000.0,5 ,Sector 152
4927,2.0,Ready to move,1080 ,5881,6352000.0,2 ,Sector 73
4928,2.0,Ready to move,1352 ,4852,6560000.0,3 ,Sector 73
4929,3.0,Under Construction,1240 ,4068,5045000.0,2 ,Ambedkar City
4930,4.0,Under Construction,2175 ,4399,9568000.0,3 ,Sector 76
4931,3.0,Ready to move,1850 ,4708,8710000.0,3 ,Sector 62
4932,3.0,Ready to move,1990 ,4967,9885000.0,3 ,Sector 72
4933,3.0,Ready to move,1950 ,4553,8880000.0,3 ,Sector-150 Noida
4934,4.0,Under Construction,1800 ,6833,12300000.0,3 ,Sector 86
4935,3.0,Ready to move,1840 ,4430,8153000.0,3 ,Phase 2 Noida Extension
4936,3.0,Ready to move,1650 ,4654,7680000.0,3 ,Phase 2 Noida Extension
4937,1.0,Ready to move,690 ,4782,3300000.0,1 ,Sector 22D Yamuna Expressway
4938,3.0,Ready to move,1573 ,4528,7123000.0,3 ,Sector 22D Yamuna Expressway
4939,2.0,Ready to move,1450 ,5146,7463000.0,3 ,Sector 73
4940,2.0,Ready to move,700 ,6050,4235000.0,2 ,Sector 70
4941,3.0,Under Construction,1187 ,5501,6530000.0,3 ,Sector 44
4942,3.0,Ready to move,1275 ,5121,6530000.0,3 ,Sector 44
4943,3.0,Ready to move,1560 ,4564,7120000.0,3 ,Atai Muradapur
4944,3.0,Ready to move,1740 ,4397,7652000.0,3 ,Sector 135
4945,2.0,Ready to move,1250 ,4920,6150000.0,2 ,Sector 16B
4946,3.0,Under Construction,1860 ,4946,9200000.0,3 ,Sector 74
4947,4.0,Ready to move,1740 ,4856,8450000.0,3 ,Sector 123
4948,3.0,Ready to move,1840 ,4157,7650000.0,3 ,Sector 137
4949,4.0,Under Construction,1950 ,4678,9123000.0,3 ,Sector 90
4950,3.0,Ready to move,2080 ,4498,9356000.0,3 ,Sector 143B
4951,3.0,Ready to move,1740 ,4344,7560000.0,3 ,Sector 82
4952,4.0,Ready to move,4800 ,4089,19600000.0,4 ,Sector 97
4953,1.0,Under Construction,635 ,5618,3568000.0,1 ,Sector 22D Yamuna Expressway
4954,3.0,Ready to move,1600 ,4470,7152000.0,3 ,Sector 62
4955,3.0,Under Construction,2360 ,4089,9652000.0,3 ,Sector 131
4956,3.0,Under Construction,975 ,6697,6530000.0,3 ,Sector 73
4957,4.0,Ready to move,2750 ,4237,11600000.0,5 ,Sector 143B
4958,3.0,Ready to move,1573 ,4745,7465000.0,3 ,Sector 22D Yamuna Expressway
4959,4.0,Ready to move,2806 ,4119,11500000.0,4 ,Sector 93A
4960,2.0,Under Construction,860 ,5660,4868000.0,2 ,Sector 22D Yamuna Expressway
4961,3.0,Ready to move,1390 ,5124,7123000.0,2 ,Sector 107
4962,2.0,Ready to move,1310 ,5229,6850000.0,2 ,Sector 75
4963,4.0,Under Construction,5250 ,4548,23800000.0,4 ,Sector 128
4964,4.0,Ready to move,4200 ,4714,19800000.0,4 ,Sector 150
4965,3.0,Ready to move,1080 ,6093,6581000.0,3 ,Sector 70
4966,2.0,Ready to move,1023 ,5528,5656000.0,2 ,Sector 121
4967,4.0,Ready to move,2675 ,4598,12300000.0,5 ,Sector 52
4968,3.0,Ready to move,1350 ,4962,6700000.0,3 ,Sector 88
4969,3.0,Under Construction,1840 ,4692,8635000.0,3 ,Sector 128
4970,3.0,Ready to move,1860 ,2930,5450000.0,3 ,Sector 135
4971,2.0,Ready to move,1350 ,4535,6123000.0,2 ,Sector-62 Noida
4972,4.0,Ready to move,2170 ,4462,9684000.0,3 ,Sector 93
4973,3.0,Ready to move,1480 ,5488,8123000.0,3 ,Sector 166
4974,2.0,Ready to move,1000 ,5623,5623000.0,,Sector 162
4975,3.0,Under Construction,1404 ,6099,8563000.0,2 ,Sector 150
4976,4.0,Ready to move,2130 ,5328,11300000.0,3 ,Sector 104
4977,3.0,Ready to move,1715 ,5034,8635000.0,3 ,Sector 25 Yamuna Express Way
4978,2.0,Under Construction,920 ,5693,5238000.0,2 ,Sector 131
4979,3.0,Ready to move,1560 ,4588,7158000.0,3 ,Sector 73
4980,3.0,Ready to move,1880 ,4069,7650000.0,3 ,Sector 163
4981,4.0,Ready to move,2410 ,4369,10500000.0,4 ,Sector 76
4982,4.0,Ready to move,3965 ,4665,18500000.0,4 ,Sector 76
4983,4.0,Under Construction,2295 ,4727,10800000.0,4 ,Sector 143
4984,3.0,Under Construction,1780 ,4299,7653000.0,3 ,Phase I
4985,3.0,Under Construction,1540 ,4574,7045000.0,3 ,Sector 152
4986,3.0,Ready to move,1840 ,4422,8138000.0,3 ,Sector-62 Noida
4987,3.0,Ready to move,1995 ,4238,8456000.0,4 ,Sector 118
4988,3.0,Ready to move,1650 ,4625,7632000.0,3 ,Sector 81
4989,4.0,Under Construction,3220 ,4100,13200000.0,4 ,Sector 150
4990,3.0,Ready to move,1840 ,4415,8125000.0,3 ,Sector 25 Yamuna Express Way
4991,2.0,Ready to move,931 ,5617,5230000.0,2 ,Sector 123
4992,3.0,Ready to move,1250 ,4844,6056000.0,3 ,Sector 73
4993,3.0,Ready to move,1600 ,4993,7990000.0,3 ,Sector 78
4994,3.0,Ready to move,1890 ,4492,8490000.0,4 ,Sector 121
4995,3.0,Ready to move,2095 ,4370,9155000.0,4 ,Sector 137
4996,3.0,Under Construction,2250 ,4586,10300000.0,3 ,Sector 150
4997,3.0,Under Construction,1880 ,5601,10500000.0,3 ,Sector 150
4998,3.0,Under Construction,2195 ,4169,9152000.0,3 ,Sector 74
4999,4.0,Ready to move,2550 ,4407,11200000.0,5 ,Sector 75
5000,3.0,Ready to move,1750 ,4087,7153000.0,3 ,Sector 75
5001,3.0,Ready to move,1750 ,4724,8268000.0,3 ,Sector 75
5002,3.0,Under Construction,1780 ,4247,7560000.0,3 ,Phase 2 Noida Extension
5003,4.0,Ready to move,2135 ,4056,8660000.0,4 ,Sector 76
5004,2.0,Under Construction,1050 ,5107,5363000.0,3 ,Sector 104
5005,3.0,Ready to move,1750 ,3760,6580000.0,3 ,Sector 153
5006,4.0,Ready to move,4130 ,5140,21200000.0,3 ,Sector 51
5007,3.0,Ready to move,1150 ,6217,7150000.0,2 ,Sector 44
5008,3.0,Under Construction,1450 ,4450,6453000.0,3 ,Sector-110 Noida
5009,4.0,Ready to move,3480 ,4971,17300000.0,4 ,Sector 74
5010,4.0,Ready to move,2380 ,4705,11200000.0,5 ,Sector 78
5011,4.0,Under Construction,3027 ,5450,16500000.0,4 ,Sector 150
5012,3.0,Ready to move,1750 ,4062,7110000.0,3 ,Sector 49
5013,2.0,Ready to move,1100 ,5598,6158000.0,2 ,Sector 75
5014,3.0,Ready to move,1560 ,4648,7252000.0,2 ,Sector 162
5015,3.0,Ready to move,1914 ,4891,9362000.0,3 ,Sector 168
5016,4.0,Under Construction,2287 ,5334,12200000.0,4 ,Sector 150
5017,3.0,Ready to move,1640 ,5590,9168000.0,3 ,Sector 78
5018,4.0,Under Construction,1985 ,5692,11300000.0,3 ,Sector 22D Yamuna Expressway
5019,3.0,Under Construction,1610 ,5204,8380000.0,3 ,Sector 50
5020,3.0,Ready to move,1560 ,5207,8123000.0,3 ,sector-121 Noida
5021,3.0,Ready to move,1590 ,4805,7640000.0,3 ,Sector 16B
5022,3.0,Ready to move,1720 ,5090,8756000.0,3 ,Phase 2 Noida Extension
5023,3.0,Ready to move,1660 ,4914,8158000.0,3 ,Sector 62
5024,2.0,Ready to move,1050 ,4879,5123000.0,2 ,Sector 53
5025,4.0,Under Construction,2230 ,5560,12400000.0,3 ,Sector 150
5026,3.0,Under Construction,1680 ,4901,8235000.0,3 ,Sector 43
5027,2.0,Ready to move,1320 ,5477,7230000.0,2 ,Phase 2 Noida Extension
5028,3.0,Under Construction,1840 ,4328,7965000.0,3 ,Sector 53
5029,3.0,Ready to move,1760 ,4916,8653000.0,3 ,Sector 44
5030,4.0,Ready to move,3277 ,4699,15400000.0,4 ,Sector 110
5031,2.0,Under Construction,860 ,5660,4868000.0,2 ,Sector 22D Yamuna Expressway
5032,3.0,Ready to move,1390 ,5124,7123000.0,2 ,Sector 107
5033,2.0,Ready to move,1310 ,5229,6850000.0,2 ,Sector 75
5034,4.0,Under Construction,5250 ,4548,23800000.0,4 ,Sector 128
5035,4.0,Ready to move,4200 ,4714,19800000.0,4 ,Sector 150
5036,3.0,Ready to move,1080 ,6093,6581000.0,3 ,Sector 70
5037,2.0,Ready to move,1023 ,5528,5656000.0,2 ,Sector 121
5038,4.0,Ready to move,2675 ,4598,12300000.0,5 ,Sector 52
5039,3.0,Ready to move,1350 ,4962,6700000.0,3 ,Sector 88
5040,3.0,Ready to move,1850 ,4732,8756000.0,3 ,Sector 93
5041,5.0,Ready to move,4756 ,4478,21300000.0,5 ,Sector 79
5042,3.0,Ready to move,1604 ,4774,7658000.0,4 ,Sector 75
5043,4.0,Ready to move,2550 ,5317,13500000.0,4 ,Sector 50
5044,5.0,Ready to move,3825 ,4941,18900000.0,4 ,Sector 78
5045,4.0,Ready to move,3400 ,4205,14300000.0,3 ,Sector 150
5046,3.0,Under Construction,1272 ,4813,6123000.0,3 ,Sector 25 Yamuna Express Way
5047,4.0,Under Construction,2560 ,4804,12300000.0,5 ,Sector 100
5048,3.0,Ready to move,1820 ,4591,8357000.0,3 ,Sector 122
5049,3.0,Ready to move,1960 ,4654,9123000.0,3 ,Sector-118 Noida
5050,3.0,Ready to move,1600 ,5285,8456000.0,3 ,Sector 62
5051,2.0,Under Construction,1150 ,5347,6150000.0,2 ,Sector 53
5052,3.0,Ready to move,1560 ,4566,7123000.0,3 ,Sector 17A Yamuna Expressway
5053,3.0,Ready to move,1573 ,4528,7123000.0,3 ,Sector 22D Yamuna Expressway
5054,2.0,Ready to move,1450 ,5146,7463000.0,3 ,Sector 73
5055,2.0,Ready to move,700 ,6050,4235000.0,2 ,Sector 70
5056,3.0,Under Construction,1187 ,5501,6530000.0,3 ,Sector 44
5057,3.0,Ready to move,1275 ,5121,6530000.0,3 ,Sector 44
5058,3.0,Ready to move,1560 ,4564,7120000.0,3 ,Atai Muradapur
5059,3.0,Ready to move,1740 ,4397,7652000.0,3 ,Sector 135
5060,2.0,Ready to move,1250 ,4920,6150000.0,2 ,Sector 16B
5061,3.0,Under Construction,1860 ,4946,9200000.0,3 ,Sector 74
5062,4.0,Ready to move,1740 ,4856,8450000.0,3 ,Sector 123
5063,3.0,Ready to move,1840 ,4157,7650000.0,3 ,Sector 137
5064,4.0,Under Construction,1950 ,4678,9123000.0,3 ,Sector 90
5065,3.0,Ready to move,2080 ,4498,9356000.0,3 ,Sector 143B
5066,3.0,Ready to move,1740 ,4344,7560000.0,3 ,Sector 82
5067,4.0,Ready to move,4800 ,4089,19600000.0,4 ,Sector 97
5068,1.0,Under Construction,635 ,5618,3568000.0,1 ,Sector 22D Yamuna Expressway
5069,3.0,Ready to move,1600 ,4470,7152000.0,3 ,Sector 62
5070,3.0,Under Construction,2360 ,4089,9652000.0,3 ,Sector 131
5071,3.0,Under Construction,975 ,6697,6530000.0,3 ,Sector 73
5072,4.0,Ready to move,2750 ,4237,11600000.0,5 ,Sector 143B
5073,3.0,Ready to move,1573 ,4745,7465000.0,3 ,Sector 22D Yamuna Expressway
5074,4.0,Ready to move,2806 ,4119,11500000.0,4 ,Sector 93A
5075,4.0,Ready to move,2186 ,4375,9563000.0,5 ,Sector 76
5076,3.0,Ready to move,1390 ,5148,7156000.0,4 ,Sector 78
5077,2.0,Ready to move,1650 ,4381,7230000.0,3 ,Sector 73
5078,3.0,Ready to move,2050 ,4450,9123000.0,3 ,Sector 62
5079,2.0,Ready to move,1100 ,5566,6123000.0,2 ,Sector 50
5080,4.0,Ready to move,3480 ,4971,17300000.0,4 ,Sector 74
5081,4.0,Ready to move,2380 ,4705,11200000.0,5 ,Sector 78
5082,4.0,Under Construction,3027 ,5450,16500000.0,4 ,Sector 150
5083,3.0,Ready to move,1750 ,4062,7110000.0,3 ,Sector 49
5084,2.0,Ready to move,1100 ,5598,6158000.0,2 ,Sector 75
5085,3.0,Ready to move,1560 ,4648,7252000.0,2 ,Sector 162
5086,3.0,Ready to move,1914 ,4891,9362000.0,3 ,Sector 168
5087,4.0,Under Construction,2287 ,5334,12200000.0,4 ,Sector 150
5088,3.0,Ready to move,1640 ,5590,9168000.0,3 ,Sector 78
5089,4.0,Under Construction,1985 ,5692,11300000.0,3 ,Sector 22D Yamuna Expressway
5090,3.0,Under Construction,1610 ,5204,8380000.0,3 ,Sector 50
5091,3.0,Under Construction,1945 ,4450,8656000.0,3 ,Sector 74
5092,2.0,Under Construction,1190 ,5337,6352000.0,2 ,Phase 2 Noida Extension
5093,2.0,Under Construction,1740 ,5151,8963000.0,3 ,Sector 129
5094,4.0,Under Construction,1800 ,6238,11200000.0,3 ,Sector 86
5095,4.0,Ready to move,3200 ,4781,15300000.0,4 ,Sector 78
5096,3.0,Ready to move,1125 ,5651,6358000.0,3 ,Sector 121
5097,4.0,Ready to move,2250 ,4991,11200000.0,5 ,Sector 46
5098,3.0,Ready to move,1750 ,4485,7850000.0,3 ,Sector 19 Yamuna Expressway
5099,3.0,Ready to move,1780 ,4578,8150000.0,3 ,Sector 166
5100,3.0,Ready to move,1250 ,5081,6352000.0,1 ,Sector 73
5101,2.0,Ready to move,850 ,6249,5312000.0,2 ,Sector 53
5102,3.0,Under Construction,1450 ,5071,7353000.0,4 ,Sector 25 Yamuna Express Way
5103,2.0,Ready to move,850 ,7211,6130000.0,2 ,Sector 53
5104,3.0,Under Construction,1355 ,5256,7123000.0,2 ,Sector 144
5105,4.0,Ready to move,2550 ,4498,11400000.0,4 ,Sector 50
5106,4.0,Ready to move,3200 ,4468,14300000.0,4 ,Sector 78
5107,4.0,Ready to move,1735 ,4531,7863000.0,4 ,Sector 78
5108,4.0,Under Construction,1800 ,6261,11200000.0,3 ,Sector 86
5109,3.0,Ready to move,1945 ,4810,9356000.0,3 ,Sector 73
5110,4.0,Under Construction,3027 ,4492,13600000.0,4 ,Sector 150
5111,3.0,Ready to move,1850 ,4732,8756000.0,3 ,Sector 93
5112,5.0,Ready to move,4756 ,4478,21300000.0,5 ,Sector 79
5113,3.0,Ready to move,1604 ,4774,7658000.0,4 ,Sector 75
5114,4.0,Ready to move,2550 ,5317,13500000.0,4 ,Sector 50
5115,5.0,Ready to move,3825 ,4941,18900000.0,4 ,Sector 78
5116,4.0,Ready to move,3400 ,4205,14300000.0,3 ,Sector 150
5117,3.0,Under Construction,1272 ,4813,6123000.0,3 ,Sector 25 Yamuna Express Way
5118,4.0,Under Construction,2560 ,4804,12300000.0,5 ,Sector 100
5119,3.0,Ready to move,1820 ,4591,8357000.0,3 ,Sector 122
5120,3.0,Ready to move,1960 ,4654,9123000.0,3 ,Sector-118 Noida
5121,3.0,Ready to move,1600 ,5285,8456000.0,3 ,Sector 62
5122,2.0,Under Construction,1150 ,5347,6150000.0,2 ,Sector 53
5123,3.0,Ready to move,1560 ,4566,7123000.0,3 ,Sector 17A Yamuna Expressway
5124,2.0,Ready to move,950 ,3157,3000000.0,2 ,Sector 44
5125,,New,900 ,2211,1990000.0,,Sector 79
5126,,New,900 ,2277,2050000.0,,Sector 79
5127,,New,2730 ,2014,5500000.0,,Sector 79
5128,5.0,Ready to move,5500 ,5654,31100000.0,5 ,Sector 150
5129,5.0,Ready to move,5000 ,7000,35000000.0,5 ,Sector 150
5130,4.0,Ready to move,2650 ,4641,12300000.0,4 ,Sector-118 Noida
5131,3.0,Under Construction,1980 ,4327,8568000.0,3 ,Sector 53
5132,4.0,Ready to move,6000 ,3231,19300000.0,5 ,Sector 110
5133,3.0,Under Construction,1660 ,4293,7128000.0,3 ,Sector 53
5134,3.0,Under Construction,1850 ,5155,9538000.0,4 ,Sector 25 Yamuna Express Way
5135,3.0,Ready to move,1660 ,4911,8153000.0,3 ,gREATER nOIDA j p sPORT cITY
5136,3.0,Ready to move,1715 ,4812,8253000.0,3 ,Sector 25 Yamuna Express Way
5137,2.0,Under Construction,850 ,6062,5153000.0,2 ,Sector 73
5138,3.0,Ready to move,1760 ,4063,7152000.0,3 ,Phase 2 Noida Extension
5139,4.0,Ready to move,6000 ,5964,35700000.0,5 ,Sector 110
5140,3.0,Under Construction,1760 ,6988,12300000.0,3 ,Sector 17A Yamuna Expressway
5141,4.0,Ready to move,1988 ,6187,12300000.0,3 ,Sector 19 Yamuna Expressway
5142,3.0,Ready to move,1150 ,7443,8560000.0,3 ,Sector 150
5143,4.0,Ready to move,2250 ,5333,12000000.0,5 ,Sector 46
5144,4.0,Ready to move,1735 ,7089,12300000.0,4 ,Sector 78
5145,4.0,Ready to move,4500 ,5111,23000000.0,3 ,Sector 51
5146,3.0,Under Construction,1116 ,8333,9300000.0,2 ,Sector 73
5147,3.0,Under Construction,1870 ,4545,8500000.0,3 ,Sector 104
5148,3.0,Under Construction,2450 ,10612,26000000.0,3 ,Sector 150
5149,4.0,Ready to move,2150 ,5758,12300000.0,4 ,Sector 51
5150,,Resale,2691 ,20074,54000000.0,,Sector 50 Block D Road
5151,,New,600 ,1650,990000.0,,Sector 63
5152,,Resale,1271 ,7671,9750000.0,,Sector 135
5153,4.0,Under Construction,2010 ,6467,13000000.0,4 ,Noida Extensions
5154,3.0,Under Construction,1350 ,6148,8300000.0,2 ,Noida Extensions
5155,4.0,Ready to move,5000 ,9000,45000000.0,5 ,Sector 150
5156,,Resale,1378 ,20334,28000000.0,,Sector 131
5157,,New,678 ,14011,9500000.0,,Sector 145
5158,,New,1647 ,18833,31000000.0,,Sector 49
5159,4.0,Ready to move,3085 ,3435,10600000.0,6 ,Sector 22A Yamuna Expressway
5160,2.0,Ready to move,975 ,3230,3150000.0,2 ,Sector 25 Yamuna Express Way
5161,2.0,Ready to move,799 ,2722,2175000.0,2 ,Sector 25 Yamuna Express Way
5162,3.0,Under Construction,1350 ,3407,4600000.0,2 ,Sector 73
5163,5.0,Ready to move,5000 ,6700,33500000.0,5 ,Sector 150
5164,3.0,Ready to move,1240 ,8064,10000000.0,3 ,Phase 2 Noida Extension
5165,1.0,Ready to move,690 ,4782,3300000.0,1 ,Sector 22D Yamuna Expressway
5166,2.0,Under Construction,900 ,16666,15000000.0,1 ,Sector 94
5167,3.0,Ready to move,1690 ,13000,21900000.0,3 ,Sector 150
5168,,Resale,969 ,10847,10500000.0,,Sector 16B
5169,,New,630 ,1333,840000.0,,Noida Extn
5170,,New,1800 ,1333,2400000.0,,Noida Extn
5171,,New,1350 ,1333,1800000.0,,Noida Extn
5172,,New,540 ,1333,720000.0,,Noida Extn
5173,,New,450 ,1333,600000.0,,Noida Extn
5174,,New,1197 ,1333,1596000.0,,Noida Extn
5175,,New,495 ,1333,660000.0,,Noida Extn
5176,,New,810 ,1333,1080000.0,,Noida Extn
5177,,New,2700 ,1222,3300000.0,,Noida Extn
5178,,Ready to move,515 ,4029,2075000.0,1 ,Sector 25 Yamuna Express Way
5179,2.0,Ready to move,1356 ,4941,6700000.0,2 ,Sector 128
5180,5.0,Ready to move,4570 ,3282,15000000.0,6 ,Sector 25 Yamuna Express Way
5181,2.0,Ready to move,538 ,2695,1450000.0,1 ,Sector 10
5182,,New,1770 ,4880,8638000.0,,Sector 17A Yamuna Expressway
5183,,New,1880 ,834,1568000.0,,Sector 143
5184,,Resale,1880 ,774,1456000.0,,Yeida
5185,,Resale,4860 ,851,4138000.0,,Sector 167B
5186,,Resale,1990 ,1181,2352000.0,,Sector 25 Yamuna Express Way
5187,,New,1650 ,950,1568000.0,,Sector 22D Yamuna Expressway
5188,,New,1660 ,1298,2156000.0,,Sector 79
5189,,Resale,1650 ,819,1352000.0,,Ambedkar City
5190,,New,1660 ,895,1486000.0,,Sector 22D Yamuna Expressway
5191,,New,22500 ,202,4556000.0,,Sector 113
5192,,Resale,1650 ,1132,1868000.0,,Sector 113
5193,,Resale,1450 ,935,1356000.0,,Sector 22D Yamuna Expressway
5194,,Resale,3560 ,1189,4235000.0,,Sector 151
5195,,Resale,1840 ,948,1745000.0,,Sector 149
5196,,Resale,1880 ,1200,2256000.0,,Sector 25 Yamuna Express Way
5197,,New,5640 ,741,4180000.0,,Sector 113
5198,,Resale,1880 ,934,1756000.0,,Sector 25 Yamuna Express Way
5199,,Resale,1680 ,970,1630000.0,,Sector 17A Yamuna Expressway
5200,,Resale,1770 ,920,1630000.0,,Sector 162
5201,,New,1770 ,820,1452000.0,,Sector 17B Yamuna Expressway
5202,,Resale,1990 ,1183,2356000.0,,Sector 128
5203,,Resale,5430 ,832,4523000.0,,Sector-150 Noida
5204,,Resale,5680 ,620,3526000.0,,Sector-150 Noida
5205,,New,1740 ,771,1342000.0,,Sector 17B Yamuna Expressway
5206,,New,1990 ,846,1685000.0,,Phase I
5207,,Resale,1950 ,1206,2352000.0,,Sector 123
5208,,Resale,1880 ,831,1563000.0,,Sector 167B
5209,,New,1710 ,2478,4238000.0,,Sector 113
5210,,New,1035 ,1333,1380000.0,,Noida Extn
5211,,New,1440 ,1333,1920000.0,,Noida Extn
5212,,New,1260 ,1333,1680000.0,,Noida Extn
5213,,New,1521 ,1333,2028000.0,,Noida Extn
5214,,New,522 ,1333,696000.0,,Noida Extn
5215,,New,945 ,1333,1260000.0,,Noida Extn
5216,,New,558 ,1308,730000.0,,Noida Extn
5217,,New,990 ,1333,1320000.0,,Noida Extn
5218,,New,693 ,1327,920000.0,,Noida Extn
5219,,New,648 ,1327,860000.0,,Noida Extn
5220,,New,864 ,1331,1150000.0,,Noida Extn
5221,,New,783 ,1283,1005000.0,,Noida Extn
5222,,New,600 ,1333,799000.0,,Noida Extn
5223,5.0,Ready to move,5000 ,6140,30700000.0,5 ,Sector 150
5224,,New,450 ,1000,450000.0,,Sector 144
5225,,New,450 ,388,175000.0,,pari chowk
5226,,New,900 ,1055,950000.0,,Sector 143
5227,,New,450 ,444,200000.0,,Sector 149
5228,,New,2250 ,444,1000000.0,,Noida Greater Noida Expressway
5229,,Resale,1200 ,4666,5600000.0,,Sector 135
5230,,New,10800 ,462,5000000.0,,Sector 135
5231,,New,4500 ,2222,10000000.0,,Sector 17A Yamuna Expressway
5232,,New,2700 ,1925,5200000.0,,Sector 17A Yamuna Expressway
5233,,New,1800 ,1944,3500000.0,,Sector 17A Yamuna Expressway
5234,,New,1800 ,1944,3500000.0,,Sector 17A Yamuna Expressway
5235,,New,1800 ,3333,6000000.0,,Sector 17A Yamuna Expressway
5236,,New,2153 ,2788,6000000.0,,Sector 17A Yamuna Expressway
5237,,New,900 ,2777,2500000.0,,Sector 17A Yamuna Expressway
5238,,New,900 ,3333,3000000.0,,Sector 17A Yamuna Expressway
5239,,New,11250 ,533,6000000.0,,Sector 150
5240,,Ready to move,515 ,3300,1700000.0,1 ,Sector 25 Yamuna Express Way
5241,,New,700 ,8571,6000000.0,,Sector 19 Yamuna Expressway
5242,,New,1076 ,3717,4000000.0,,Sector 22D Yamuna Expressway
5243,,New,2153 ,3485,7500000.0,,Sector 19 Yamuna Expressway
5244,,New,900 ,4444,4000000.0,,Sector 19 Yamuna Expressway
5245,,New,900 ,1333,1200000.0,,Noida Extn
5246,,New,675 ,1333,900000.0,,Noida Extn
5247,,New,585 ,1333,780000.0,,Noida Extn
5248,3.0,Ready to move,1295 ,2818,3650000.0,2 ,Sector 25 Yamuna Express Way
5249,2.0,Ready to move,799 ,3060,2445000.0,2 ,Sector 22A Yamuna Expressway
5250,,New,900 ,3888,3500000.0,,Sector 19 Yamuna Expressway
5251,,New,1076 ,3252,3500000.0,,Sector 19 Yamuna Expressway
5252,,New,900 ,3888,3500000.0,,Sector 19 Yamuna Expressway
5253,,New,2153 ,3020,6500000.0,,Sector 19 Yamuna Expressway
5254,,New,3229 ,3096,10000000.0,,Sector 19 Yamuna Expressway
5255,,New,1076 ,2973,3200000.0,,Sector 19 Yamuna Expressway
5256,,New,6458 ,3096,20000000.0,,Sector 19 Yamuna Expressway
5257,,New,1076 ,3252,3500000.0,,Sector 19 Yamuna Expressway
5258,,New,500 ,32000,16000000.0,,Sector 19 Yamuna Expressway
5259,,New,3229 ,3096,10000000.0,,Sector 19 Yamuna Expressway
5260,,New,300 ,33333,10000000.0,,Sector 19 Yamuna Expressway
5261,,New,2153 ,3485,7500000.0,,Sector 19 Yamuna Expressway
5262,,New,2700 ,3703,10000000.0,,Sector 19 Yamuna Expressway
5263,,New,450 ,1000,450000.0,,Sector 143
5264,,New,1743 ,1262,2199000.0,,Sector 143
5265,,New,450 ,2222,1000000.0,,Sector 115
5266,,New,450 ,1000,450000.0,,Sector 143
5267,,New,1350 ,1037,1400000.0,,Noida Greater Noida Expressway
5268,,New,900 ,1000,900000.0,,Sector 144
5269,,New,450 ,1044,470000.0,,Sector 144
5270,,New,1800 ,444,800000.0,,Sector 150
5271,,New,720 ,1277,920000.0,,Sector 143
5272,,New,360 ,1277,460000.0,,Sector 143
5273,,New,459 ,1277,586000.0,,Sector 143
5274,,New,200 ,11500,2300000.0,,Sector 143
5275,5.0,Ready to move,5500 ,5636,31000000.0,5 ,Sector 150
5276,2.0,Ready to move,855 ,2222,1900000.0,2 ,noida
5277,3.0,Ready to move,1577 ,6658,10500000.0,3 ,Sector 119
5278,,New,1350 ,1333,1800000.0,,Sector 142
5279,,New,1800 ,1333,2400000.0,,Sector 142
5280,,New,675 ,1333,900000.0,,Sector 142
5281,3.0,Under Construction,1450 ,4482,6500000.0,3 ,Sector 107
5282,,New,900 ,1333,1200000.0,,Sector 143
5283,,New,450 ,1222,550000.0,,Sector 143
5284,,New,450 ,1333,600000.0,,Sector 143
5285,,New,900 ,1222,1100000.0,,Sector 143
5286,,New,1800 ,1333,2400000.0,,Sector 143
5287,,New,810 ,1277,1035000.0,,Sector 143
5288,,New,540 ,1277,690000.0,,Sector 143
5289,,New,270 ,1277,345000.0,,Sector 143
5290,2.0,Ready to move,1100 ,5909,6500000.0,2 ,Sector 62
5291,,New,1800 ,1000,1800000.0,,Sector 143
5292,,New,900 ,1055,950000.0,,Sector 143
5293,,New,450 ,1000,450000.0,,Sector 143
5294,3.0,Ready to move,1410 ,4539,6400000.0,2 ,Sector 77
5295,4.0,Ready to move,3350 ,10985,36800000.0,5 ,Sector 50
5296,4.0,Ready to move,4150 ,10120,42000000.0,5 ,Sector 93B
5297,4.0,Ready to move,6000 ,5933,35600000.0,5 ,Sector 110
5298,3.0,Under Construction,2340 ,14529,34000000.0,3 ,Sector 146
5299,,New,1350 ,1222,1650000.0,,Sector 143
5300,,New,900 ,1222,1100000.0,,Sector 143
5301,,New,1800 ,1222,2200000.0,,Sector 143
5302,,New,900 ,1333,1200000.0,,Sector 143
5303,,New,270 ,1333,360000.0,,Sector 148
5304,,New,900 ,2222,2000000.0,,Sector 115
5305,,New,540 ,2222,1200000.0,,Sector 115
5306,3.0,Under Construction,1350 ,7407,10000000.0,2 ,Noida Extensions
5307,,New,900 ,1333,1200000.0,,Noida Extn
5308,3.0,Under Construction,1545 ,7508,11600000.0,3 ,Noida Extensions
5309,3.0,Under Construction,1350 ,7489,10100000.0,2 ,Noida Extensions
5310,4.0,Under Construction,2010 ,7462,15000000.0,4 ,Noida Extensions
5311,3.0,Under Construction,1350 ,7481,10100000.0,2 ,Noida Extensions
5312,4.0,Under Construction,2010 ,7462,15000000.0,4 ,Noida Extensions
5313,3.0,Ready to move,1350 ,5925,8000000.0,2 ,Noida Extensions
5314,5.0,Ready to move,6200 ,7661,47500000.0,5 ,Sector 79
5315,,Under Construction,535 ,7250,3878000.0,1 ,Sector 74
5316,1.0,Ready to move,258 ,8527,2200000.0,1 ,Sector-82 Noida
5317,4.0,Under Construction,3200 ,6726,21500000.0,,Sector 152
5318,4.0,Under Construction,3200 ,6726,21500000.0,,Sector 152
5319,4.0,Under Construction,3200 ,6726,21500000.0,,Sector 152
5320,4.0,Under Construction,3200 ,6726,21500000.0,,Sector 152
5321,3.0,Under Construction,2350 ,6808,16000000.0,,Sector 152
5322,3.0,Under Construction,2350 ,6808,16000000.0,,Sector 152
5323,3.0,Under Construction,1850 ,6891,12700000.0,3 ,Sector 152
5324,3.0,Under Construction,1850 ,6891,12700000.0,3 ,Sector 152
5325,4.0,Under Construction,3198 ,9380,30000000.0,,Sector 150
5326,2.0,Under Construction,1305 ,8812,11500000.0,,Sector 150
5327,4.0,Under Construction,3198 ,9380,30000000.0,,Sector 150
5328,2.0,Under Construction,1305 ,8812,11500000.0,,Sector 150
5329,4.0,Under Construction,3198 ,9380,30000000.0,,Sector 150
5330,2.0,Under Construction,1305 ,8812,11500000.0,,Sector 150
5331,3.0,Under Construction,2440 ,11299,27500000.0,,Sector 150
5332,3.0,Under Construction,2440 ,11299,27500000.0,,Sector 150
5333,3.0,Under Construction,3165 ,7266,23000000.0,,Sector 150
5334,3.0,Under Construction,3165 ,7266,23000000.0,,Sector 150
5335,3.0,Under Construction,1947 ,9501,18500000.0,,Sector 150
5336,3.0,Under Construction,1947 ,9501,18500000.0,,Sector 150
5337,4.0,Under Construction,3963 ,8831,35000000.0,,Sector 150
5338,4.0,Under Construction,3963 ,8831,35000000.0,,Sector 150
5339,2.0,Under Construction,1558 ,8812,13700000.0,,Sector 150
5340,2.0,Under Construction,1558 ,8812,13700000.0,,Sector 150
5341,2.0,Under Construction,1628 ,7678,12500000.0,,Sector 150
5342,2.0,Under Construction,1628 ,7678,12500000.0,,Sector 150
5343,5.0,Ready to move,5500 ,1454,8000000.0,3 ,Sector 12
5344,3.0,Under Construction,2000 ,10500,21000000.0,3 ,Sector 150
5345,2.0,Under Construction,1137 ,5000,5685000.0,,Sector 150
5346,3.0,Under Construction,934 ,8459,7901000.0,,Sector 150
5347,3.0,Under Construction,1151 ,8325,9582000.0,,Sector 150
5348,3.0,Under Construction,1404 ,5599,7862000.0,1 ,Sector 150
5349,4.0,Ready to move,4720 ,6567,31000000.0,4 ,Sector 79
5350,4.0,Under Construction,2780 ,9712,27000000.0,5 ,Sector 79
5351,,Under Construction,1050 ,4761,5000000.0,1 ,Sector 62
5352,3.0,Under Construction,2350 ,6600,15500000.0,4 ,Sector 152
5353,3.0,Ready to move,1625 ,6600,10700000.0,2 ,Sector 150
5354,3.0,Under Construction,2000 ,10500,21000000.0,1 ,Sector 150
5355,3.0,Under Construction,2000 ,10500,21000000.0,3 ,Sector 150
5356,2.0,Under Construction,1476 ,7655,11300000.0,2 ,Sector 150
5357,2.0,Ready to move,950 ,3369,3200000.0,1 ,Sector 49
5358,2.0,Under Construction,1100 ,6727,7400000.0,2 ,Sector 150
5359,4.0,Ready to move,2675 ,4934,13200000.0,5 ,Sector 52
5360,3.0,Under Construction,1285 ,6149,7901000.0,2 ,Sector 150
5361,3.0,Ready to move,1385 ,5920,8200000.0,2 ,Sector 77
5362,1.0,Ready to move,595 ,2899,1724000.0,1 ,Sector 45
5363,2.0,Ready to move,995 ,5728,5700000.0,2 ,Noida Extn
5364,3.0,Ready to move,2179 ,3500,7626000.0,4 ,Sector 17A Yamuna Expressway
5365,1.0,Under Construction,710 ,5700,4047000.0,1 ,Sector 25 Yamuna Express Way
5366,2.0,Under Construction,1100 ,6545,7200000.0,2 ,Sector 150
5367,5.0,Under Construction,2715 ,7071,19200000.0,5 ,Sector 79
5368,4.0,Under Construction,2335 ,6895,16100000.0,4 ,Sector 79
5369,5.0,Under Construction,6010 ,9151,55000000.0,6 ,Sector 79
5370,4.0,Ready to move,3728 ,6706,25000000.0,5 ,Sector 128
5371,2.0,Ready to move,1278 ,6964,8900000.0,2 ,Sector 119
5372,2.0,Ready to move,1020 ,2843,2900000.0,2 ,Sector 44
5373,3.0,Ready to move,1827 ,7115,13000000.0,3 ,Sector 121
5374,3.0,Ready to move,1827 ,7389,13500000.0,3 ,Sector 121
5375,3.0,Ready to move,2080 ,1826,3800000.0,3 ,Sector 44
5376,4.0,Under Construction,3616 ,11698,42300000.0,4 ,Sector 144
5377,3.0,Under Construction,2240 ,7857,17600000.0,3 ,Sector 150
5378,3.0,Under Construction,2440 ,7213,17600000.0,3 ,Sector 150
5379,2.0,Ready to move,1075 ,2095,2252000.0,,Sector 19 Yamuna Expressway
5380,3.0,Ready to move,1375 ,2095,2880000.0,,Sector 19 Yamuna Expressway
5381,2.0,Ready to move,1270 ,2095,2660000.0,,Sector 19 Yamuna Expressway
5382,1.0,Ready to move,480 ,4364,2094000.0,,Sector 19 Yamuna Expressway
5383,2.0,Ready to move,1155 ,2380,2748000.0,,Sector 25 Yamuna Express Way
5384,2.0,Ready to move,1195 ,2380,2844000.0,,Sector 25 Yamuna Express Way
5385,2.0,Ready to move,955 ,2380,2272000.0,2 ,Sector 25 Yamuna Express Way
5386,2.0,Ready to move,799 ,2380,1901000.0,,Sector 25 Yamuna Express Way
5387,2.0,Ready to move,995 ,2380,2368000.0,2 ,Sector 25 Yamuna Express Way
5388,3.0,Under Construction,1395 ,6093,8500000.0,3 ,Noida Extn
5389,,Under Construction,1050 ,9523,10000000.0,1 ,Sector 62
5390,2.0,Ready to move,950 ,3578,3400000.0,2 ,Sector 45
5391,1.0,Ready to move,550 ,3272,1800000.0,1 ,Sector 45
5392,2.0,Under Construction,1100 ,7000,7700000.0,2 ,Sector 150
5393,3.0,Ready to move,1675 ,5731,9600000.0,3 ,Sector 150
5394,2.0,Ready to move,928 ,3232,3000000.0,2 ,Sector 151
5395,5.0,Under Construction,2715 ,6629,18000000.0,5 ,Sector 79
5396,4.0,Ready to move,2335 ,6595,15400000.0,4 ,Sector 79
5397,3.0,Ready to move,4500 ,2222,10000000.0,3 ,Dadri Main Road
5398,3.0,Ready to move,1331 ,12021,16000000.0,2 ,Sector 27
5399,2.0,Under Construction,1045 ,10047,10500000.0,2 ,Sector 152
5400,3.0,Under Construction,2563 ,13070,33500000.0,3 ,Sector 43
5401,5.0,Under Construction,3754 ,15716,59000000.0,5 ,Sector 43
5402,4.0,Under Construction,5750 ,11304,65000000.0,5 ,Sector 150
5403,3.0,Under Construction,1750 ,7200,12600000.0,3 ,Sector 150
5404,3.0,Under Construction,2190 ,7077,15500000.0,3 ,Sector 150
5405,5.0,Under Construction,8250 ,10303,85000000.0,7 ,Sector 150
5406,3.0,Under Construction,2555 ,3913,10000000.0,5 ,Sector 25 Yamuna Express Way
5407,3.0,Under Construction,2150 ,3953,8500000.0,4 ,Sector 25 Yamuna Express Way
5408,3.0,Under Construction,2334 ,6426,14900000.0,,Sector 19 Yamuna Expressway
5409,6.0,Ready to move,6470 ,6491,42000000.0,6 ,Noida Extension inactive
5410,4.0,Ready to move,2725 ,9174,25000000.0,4 ,Sector 75
5411,3.0,Ready to move,1480 ,4729,7000000.0,3 ,Sector 78
5412,3.0,Under Construction,1575 ,5712,8996000.0,3 ,Sector 150
5413,3.0,Under Construction,1285 ,5774,7420000.0,2 ,Sector 150
5414,2.0,Under Construction,995 ,5394,5368000.0,2 ,Noida Extn
5415,6.0,Ready to move,3229 ,15484,50000000.0,5 ,Sector 30
5416,,Under Construction,1050 ,9523,10000000.0,1 ,Sector 62
5417,3.0,Under Construction,2000 ,10500,21000000.0,3 ,Sector 150
5418,,Under Construction,300 ,17666,5300000.0,1 ,Sector 75
5419,3.0,Ready to move,2095 ,6014,12600000.0,3 ,Sector 150
5420,3.0,Ready to move,1325 ,4905,6500000.0,3 ,Sector 120
5421,3.0,Ready to move,1685 ,8605,14500000.0,2 ,indirapuram 
5422,,New,900 ,888,800000.0,,Sector 17A Yamuna Expressway
5423,3.0,Ready to move,1630 ,2668,4350000.0,3 ,Noida Extn
5424,5.0,Ready to move,2416 ,5794,14000000.0,5 ,Sector 61
5425,3.0,Ready to move,1495 ,5752,8600000.0,2 ,Sector 143
5426,3.0,Under Construction,1630 ,2668,4350000.0,3 ,Noida Extn
5427,2.0,Ready to move,925 ,3135,2900000.0,2 ,Sector 44
5428,2.0,Under Construction,1245 ,5843,7275000.0,,Sector 79
5429,2.0,Under Construction,1050 ,3333,3500000.0,2 ,Sector 45
5430,2.0,Ready to move,1100 ,2909,3200000.0,2 ,Sector 49
5431,2.0,Ready to move,950 ,3052,2900000.0,2 ,Sector 110
5432,2.0,Ready to move,770 ,3636,2800000.0,2 ,Sector 53
5433,3.0,Under Construction,1500 ,3200,4800000.0,2 ,Sector 49
5434,2.0,Ready to move,1085 ,4792,5200000.0,2 ,Sector 168
5435,2.0,Ready to move,850 ,2352,2000000.0,2 ,Sector 49 Hindon Vihar
5436,2.0,Ready to move,850 ,2352,2000000.0,2 ,Sector 49
5437,4.0,Under Construction,2251 ,10084,22700000.0,,Sector 150
5438,1.0,Ready to move,580 ,3189,1850000.0,1 ,Sector 44
5439,3.0,Ready to move,1400 ,2857,4000000.0,3 ,Sector 44
5440,3.0,Ready to move,1465 ,3890,5700000.0,3 ,Sector 168
5441,3.0,Ready to move,1835 ,5013,9200000.0,4 ,Sector 78
5442,3.0,Ready to move,1495 ,5618,8400000.0,2 ,Sector 79
5443,3.0,Ready to move,1735 ,5360,9300000.0,3 ,Sector 79
5444,3.0,Ready to move,1130 ,4159,4700000.0,3 ,Sector 168
5445,4.0,Ready to move,2890 ,5950,17100000.0,,Sector 79
5446,3.0,Ready to move,1495 ,5950,8895000.0,,Sector 79
5447,2.0,Ready to move,1082 ,4805,5200000.0,2 ,Sector 74
5448,1.0,Ready to move,598 ,2341,1400000.0,1 ,Sector 110
5449,,Under Construction,900 ,2777,2500000.0,2 ,Sector 150
5450,3.0,Under Construction,1000 ,2500,2500000.0,2 ,Sector 150
5451,3.0,Ready to move,1600 ,3437,5500000.0,2 ,Sector 49
5452,3.0,Ready to move,1600 ,3375,5400000.0,3 ,Sector 49
5453,3.0,Ready to move,1600 ,3687,5900000.0,3 ,Sector 48
5454,2.0,Ready to move,855 ,4269,3650000.0,2 ,Sector 77
5455,,New,900 ,388,350000.0,,Sector 78
5456,,New,900 ,388,350000.0,,Sector 74
5457,,Resale,11160 ,472,5270000.0,,Sector 150
5458,,Resale,11160 ,472,5270000.0,,Sector 150
5459,,New,9072 ,330,3000000.0,,Sector 150
5460,,New,900 ,1333,1200000.0,,Sector 148
5461,,New,900 ,1333,1200000.0,,Sector 148
5462,,New,900 ,1333,1200000.0,,Sector 148
5463,,New,900 ,1333,1200000.0,,Sector 148
5464,,Resale,11160 ,472,5270000.0,,Sector 150
5465,,Resale,11160 ,472,5270000.0,,Sector 150
5466,,New,900 ,1222,1100000.0,,Sector 148
5467,,Resale,1787 ,9294,16600000.0,,Sector 63 A
5468,,New,1350 ,1111,1500000.0,,Sector 144
5469,,New,900 ,2333,2100000.0,,Sector 166
5470,,Resale,4306 ,8896,38300000.0,,Sector 92
5471,,New,900 ,1222,1100000.0,,noida expressway
5472,,New,900 ,2444,2200000.0,,Sector 81
5473,,Resale,450 ,2777,1250000.0,,Sector 81
5474,,New,450 ,1222,550000.0,,Sector 142
5475,,New,1350 ,1222,1650000.0,,Sector 62
5476,,New,720 ,1222,880000.0,,Sector 148
5477,,New,1350 ,1333,1800000.0,,Sector 148
5478,,New,900 ,1222,1100000.0,,Sector 148
5479,,New,2000 ,1200,2400000.0,,Achheja
5480,,New,720 ,1222,880000.0,,Achheja
5481,,New,540 ,1222,660000.0,,Achheja
5482,,New,900 ,1222,1100000.0,,Achheja
5483,,Resale,11160 ,472,5275000.0,,Sector 150
5484,,New,450 ,1777,800000.0,,Sector 148
5485,,New,900 ,1111,1000000.0,,Sector 144
5486,,New,900 ,1222,1100000.0,,142 FNG Road
5487,,New,1440 ,1111,1600000.0,,Sector 144
5488,,New,1800 ,1111,2000000.0,,Sector 144
5489,,New,1620 ,1111,1800000.0,,Sector 143
5490,,New,900 ,1111,1000000.0,,Sector 144
5491,,New,1080 ,1111,1200000.0,,Sector 144
5492,,New,1242 ,1111,1380000.0,,Sector 143
5493,,New,2350 ,372,875000.0,,Sector 149
5494,,New,1800 ,388,700000.0,,Sector 150
5495,,New,4500 ,388,1750000.0,,Sector 143
5496,,New,630 ,1111,700000.0,,Sector 145
5497,,New,900 ,1111,1000000.0,,Sector150 Noida
5498,,New,1350 ,1111,1500000.0,,Sector 144
5499,,New,2610 ,1111,2900000.0,,Sector 144
5500,,New,1800 ,1111,2000000.0,,Sector 144
5501,,New,810 ,1111,900000.0,,Sector 144
5502,,New,450 ,1111,500000.0,,Sector 144
5503,,New,3150 ,1111,3500000.0,,Sector 144
5504,,New,4500 ,1111,5000000.0,,Sector 144
5505,,New,936 ,3525,3299000.0,,Sector 22D Yamuna Expressway
5506,,New,1350 ,3525,4758000.0,,Sector 22D Yamuna Expressway
5507,,New,2153 ,3772,8121000.0,,Sector 19 Yamuna Expressway
5508,,New,1615 ,3772,6091000.0,,Sector 19 Yamuna Expressway
5509,,New,5382 ,3772,20300000.0,,Sector 19 Yamuna Expressway
5510,,New,2340 ,1111,2600000.0,,Sector 144
5511,,New,810 ,1111,900000.0,,Sector 144
5512,,New,2700 ,1111,3000000.0,,Sector 143
5513,,New,1305 ,1111,1450000.0,,Sector 144
5514,,New,1170 ,1111,1300000.0,,Sector 144
5515,,New,1350 ,1111,1500000.0,,Sector 144
5516,,New,1665 ,1111,1850000.0,,Sector 144
5517,,New,810 ,1111,900000.0,,Sector 144
5518,,New,1800 ,1111,2000000.0,,Sector 144
5519,,New,2700 ,1111,3000000.0,,Sector 144
5520,,New,810 ,1111,900000.0,,Sector 144
5521,,New,450 ,1111,500000.0,,Sector 144
5522,,New,450 ,1333,600000.0,,Sector 20
5523,,New,1080 ,925,1000000.0,,Sector 143
5524,,New,1350 ,1111,1500000.0,,New Ashok Nagar Road
5525,,New,900 ,1022,920000.0,,Jewar Toll Plaza
5526,,New,900 ,1222,1100000.0,,Sector 144
5527,,New,1800 ,1166,2100000.0,,Sector 144
5528,,New,1530 ,1111,1700000.0,,Sector 144
5529,,New,936 ,3525,3299000.0,,Sector 22D Yamuna Expressway
5530,,New,1350 ,3525,4758000.0,,Sector 22D Yamuna Expressway
5531,,New,450 ,1111,500000.0,,Noida Greater Noida Expressway
5532,,New,50 ,10000,500000.0,,Sector-144 Noida
5533,,New,2700 ,1111,3000000.0,,Sector 148
5534,,New,900 ,1111,1000000.0,,noida sector 137
5535,,New,100 ,10000,1000000.0,,Sector 144
5536,,New,450 ,1111,500000.0,,Sector 148
5537,,New,100 ,10000,1000000.0,,Sector 144
5538,,New,450 ,1111,500000.0,,Sector 144
5539,,New,900 ,1444,1300000.0,,Sector 148
5540,,New,1350 ,1000,1350000.0,,Sector 144
5541,,New,2691 ,3721,10000000.0,,Sector 19 Yamuna Expressway
5542,,Resale,11160 ,472,5275000.0,,Sector 150
5543,,New,900 ,1000,900000.0,,Sector144 Noida
5544,,New,1350 ,1000,1350000.0,,Sector144 Noida
5545,,New,1800 ,1000,1800000.0,,Sector144 Noida
5546,,New,1800 ,1055,1900000.0,,Sector 143
5547,,Resale,10764 ,6271,67500000.0,,EcotechII
5548,,New,900 ,388,350000.0,,Sector 150
5549,,Resale,450 ,1444,650000.0,,Sector 144
5550,,Resale,900 ,1388,1250000.0,,Sector 144
5551,,New,810 ,355,288000.0,,Sector 149
5552,,New,1200 ,387,465000.0,,Sector 150
5553,3.0,Ready to move,1500 ,3000,4500000.0,3 ,Sector 44
5554,1.0,Under Construction,575 ,2608,1500000.0,1 ,Sector 53
5555,2.0,Ready to move,875 ,2800,2450000.0,2 ,Sector 73
5556,1.0,Ready to move,625 ,2520,1575000.0,1 ,Sector 73
5557,1.0,Under Construction,625 ,2640,1650000.0,1 ,Sector 53
5558,2.0,Ready to move,800 ,2156,1725000.0,2 ,Gaur City 1 Road
5559,2.0,Ready to move,825 ,2666,2200000.0,2 ,sector73
5560,3.0,Under Construction,1700 ,2882,4900000.0,3 ,Noida Extn
5561,2.0,Under Construction,1062 ,4048,4300000.0,2 ,Noida Extn
5562,3.0,Ready to move,3070 ,7817,24000000.0,3 ,Sector 78
5563,3.0,Ready to move,2500 ,8040,20100000.0,3 ,Sector 78
5564,3.0,Ready to move,2500 ,760,1900000.0,3 ,Sector 78
5565,4.0,Ready to move,3430 ,8688,29800000.0,4 ,Sector 78
5566,3.0,Ready to move,1620 ,7654,12400000.0,2 ,Sector 121
5567,4.0,Ready to move,3525 ,7489,26400000.0,4 ,Sector 78
5568,2.0,Ready to move,825 ,3878,3200000.0,2 ,Sector 137
5569,3.0,Ready to move,2600 ,6153,16000000.0,3 ,Sector 128
5570,3.0,Ready to move,1525 ,3606,5500000.0,3 ,Sector 133
5571,3.0,Ready to move,1470 ,3877,5700000.0,3 ,Sector 129
5572,2.0,Ready to move,850 ,4060,3451000.0,2 ,Sector 134
5573,3.0,Ready to move,1280 ,4062,5200000.0,2 ,Sector 134
5574,3.0,Ready to move,1295 ,4633,6000000.0,,Sector 74
5575,3.0,Ready to move,1495 ,5685,8500000.0,,Sector 75
5576,2.0,Ready to move,1310 ,5725,7500000.0,,Sector 75
5577,2.0,Ready to move,1310 ,5725,7500000.0,,Sector 75
5578,3.0,Ready to move,1750 ,6285,11000000.0,3 ,Sector 128
5579,2.0,Ready to move,925 ,2864,2650000.0,2 ,Sector 44
5580,3.0,Ready to move,1660 ,10000,16600000.0,3 ,Sector 75
5581,3.0,Ready to move,2105 ,8551,18000000.0,3 ,Sector 94
5582,2.0,Ready to move,1380 ,9057,12500000.0,2 ,Sector 94
5583,3.0,Under Construction,2700 ,9481,25600000.0,3 ,Sector 128
5584,3.0,Under Construction,1775 ,10140,18000000.0,3 ,Sector 152
5585,2.0,Under Construction,1350 ,9259,12500000.0,2 ,Sector 152
5586,4.0,Under Construction,4145 ,9819,40700000.0,5 ,Sector 128
5587,3.0,Under Construction,3047 ,9845,30000000.0,4 ,Sector 128
5588,5.0,Under Construction,6250 ,10000,62500000.0,5 ,Sector 128
5589,4.0,Under Construction,3465 ,10000,34600000.0,4 ,Sector 128
5590,3.0,Under Construction,2700 ,10000,27000000.0,3 ,Sector 128
5591,4.0,Ready to move,3430 ,10000,34300000.0,4 ,Sector 78
5592,3.0,Ready to move,2650 ,9433,25000000.0,4 ,Sector 128
5593,3.0,Ready to move,2500 ,10000,25000000.0,3 ,Sector 78
5594,3.0,Ready to move,3020 ,10000,30200000.0,3 ,Sector 78
5595,4.0,Ready to move,3525 ,10000,35200000.0,4 ,Sector 78
5596,,Ready to move,596 ,4694,2798000.0,1 ,Sector 77
5597,3.0,Under Construction,2500 ,9000,22500000.0,4 ,Sector 115
5598,3.0,Under Construction,1800 ,9000,16200000.0,3 ,Sector 115
5599,4.0,Under Construction,3550 ,9014,32000000.0,5 ,Sector 107
5600,3.0,Under Construction,2500 ,9000,22500000.0,4 ,Sector 107
5601,4.0,Under Construction,3500 ,9000,31500000.0,5 ,Sector 115
5602,4.0,Under Construction,3005 ,8985,27000000.0,5 ,Sector 115
5603,3.0,Under Construction,934 ,7883,7362000.0,,Sector 150
5604,3.0,Under Construction,1151 ,7771,8944000.0,,Sector 150
5605,2.0,Under Construction,783 ,8162,6390000.0,,Sector 150
5606,3.0,Under Construction,1750 ,6171,10800000.0,,Sector 150
5607,3.0,Under Construction,1750 ,6171,10800000.0,,Sector 150
5608,4.0,Under Construction,3220 ,7018,22600000.0,,Sector 150
5609,4.0,Under Construction,3220 ,7018,22600000.0,,Sector 150
5610,3.0,Under Construction,2190 ,6484,14200000.0,,Sector 150
5611,3.0,Under Construction,2190 ,6484,14200000.0,,Sector 150
5612,3.0,Under Construction,2460 ,7073,17400000.0,,Sector 150
5613,3.0,Under Construction,2460 ,7073,17400000.0,,Sector 150
5614,3.0,Under Construction,1549 ,5100,7900000.0,3 ,Sector 150
5615,2.0,Under Construction,1262 ,5150,6500000.0,2 ,Sector 150
5616,4.0,Under Construction,3027 ,5913,17900000.0,4 ,Sector 150
5617,4.0,Under Construction,2697 ,5895,15900000.0,4 ,Sector 150
5618,3.0,Under Construction,2062 ,4801,9900000.0,,Sector 150
5619,3.0,Under Construction,2330 ,5922,13800000.0,,Sector 150
5620,2.0,Under Construction,1245 ,5060,6300000.0,,Sector 79
5621,3.0,Under Construction,1645 ,4969,8175000.0,3 ,Sector 79
5622,5.0,Under Construction,2715 ,4150,11200000.0,5 ,Sector 79
5623,3.0,Under Construction,1895 ,5134,9730000.0,3 ,Sector 79
5624,2.0,Under Construction,1215 ,5057,6145000.0,,Sector 79
5625,3.0,Under Construction,1620 ,5398,8745000.0,,Sector 79
5626,4.0,Under Construction,2335 ,5096,11900000.0,4 ,Sector 79
5627,2.0,Under Construction,1385 ,5299,7340000.0,2 ,Sector 79
5628,3.0,Ready to move,1725 ,4347,7500000.0,3 ,Sector 137
5629,1.0,Under Construction,610 ,5901,3600000.0,1 ,Tech Zone 4 Greater Noida Wes
5630,1.0,Under Construction,550 ,5818,3200000.0,1 ,Tech Zone 4 Greater Noida Wes
5631,4.0,Under Construction,3198 ,6223,19900000.0,,Sector 150
5632,2.0,Under Construction,1305 ,6437,8400000.0,,Sector 150
5633,3.0,Under Construction,3165 ,4897,15400000.0,,Sector 150
5634,3.0,Under Construction,2440 ,6189,15100000.0,,Sector 150
5635,3.0,Under Construction,1947 ,6112,11900000.0,,Sector 150
5636,4.0,Under Construction,3963 ,5299,20900000.0,,Sector 150
5637,2.0,Under Construction,1558 ,6226,9700000.0,,Sector 150
5638,2.0,Under Construction,1628 ,6572,10600000.0,,Sector 150
5639,2.0,Under Construction,1264 ,6487,8199000.0,,Sector 150
5640,4.0,Ready to move,2890 ,5800,16700000.0,,Sector 79
5641,3.0,Ready to move,1495 ,5800,8671000.0,,Sector 79
5642,2.0,Under Construction,1245 ,4941,6151000.0,,Sector 150
5643,3.0,Under Construction,1690 ,4857,8208000.0,,Sector 150
5644,3.0,Under Construction,1625 ,4866,7907000.0,,Sector 150
5645,3.0,Under Construction,1495 ,4888,7307000.0,,Sector 150
5646,3.0,Under Construction,1395 ,4907,6845000.0,,Sector 150
5647,2.0,Under Construction,1165 ,4963,5781000.0,,Sector 150
5648,3.0,Ready to move,2095 ,6175,12900000.0,,Sector 150
5649,3.0,Ready to move,1675 ,6175,10300000.0,,Sector 150
5650,3.0,Under Construction,1511 ,12243,18500000.0,,Sector 150
5651,2.0,Under Construction,890 ,13146,11700000.0,,Sector 150
5652,3.0,Under Construction,1322 ,11951,15800000.0,,Sector 150
5653,3.0,Under Construction,1794 ,11315,20300000.0,,Sector 150
5654,2.0,Under Construction,849 ,12720,10800000.0,,Sector 150
5655,2.0,Under Construction,1245 ,5141,6400000.0,,Sector 78
5656,3.0,Under Construction,1640 ,5185,8503000.0,,Sector 78
5657,2.0,Under Construction,1140 ,5263,5999000.0,,Sector 78
5658,3.0,Under Construction,2500 ,5369,13400000.0,,Sector 78
5659,3.0,Under Construction,2100 ,5446,11400000.0,,Sector 78
5660,3.0,Under Construction,1910 ,5446,10400000.0,,Sector 78
5661,3.0,Under Construction,1480 ,5093,7537000.0,3 ,Sector 78
5662,3.0,Under Construction,1620 ,5405,8756000.0,6 ,Sector 78
5663,2.0,Under Construction,1010 ,5446,5500000.0,2 ,Sector 78
5664,3.0,Under Construction,1490 ,5446,8114000.0,,Sector 78
5665,3.0,Under Construction,2075 ,5239,10800000.0,,Sector 78
5666,3.0,Under Construction,1900 ,5684,10800000.0,3 ,Sector 143B
5667,3.0,Under Construction,1700 ,5647,9600000.0,3 ,Sector 143B
5668,2.0,Ready to move,1277 ,5246,6700000.0,2 ,Sector 137
5669,3.0,Under Construction,2555 ,5250,13400000.0,,Sector 150
5670,3.0,Under Construction,2040 ,5250,10700000.0,,Sector 150
5671,4.0,Under Construction,3355 ,5633,18900000.0,,Sector 150
5672,3.0,Under Construction,1700 ,4950,8415000.0,3 ,Sector 150
5673,3.0,Under Construction,2250 ,5600,12600000.0,,Sector 150
5674,4.0,Under Construction,3200 ,5350,17100000.0,,Sector 150
5675,3.0,Under Construction,2000 ,5350,10700000.0,,Sector 150
5676,3.0,Under Construction,2300 ,5350,12300000.0,,Sector 150
5677,3.0,Under Construction,1625 ,5350,8693000.0,,Sector 150
5678,3.0,Ready to move,2153 ,12778,27500000.0,5 ,Sector 50
5679,6.0,Ready to move,4844 ,11356,55000000.0,6 ,Sector 50
5680,3.0,Ready to move,2691 ,10408,28000000.0,3 ,Sector 50
5681,6.0,Ready to move,4844 ,16518,80000000.0,6 ,Sector 50
5682,4.0,Under Construction,3198 ,6223,19900000.0,,Sector 150
5683,2.0,Under Construction,1305 ,6437,8400000.0,,Sector 150
5684,3.0,Under Construction,3165 ,4897,15400000.0,,Sector 150
5685,3.0,Under Construction,2440 ,6189,15100000.0,,Sector 150
5686,3.0,Under Construction,1947 ,6112,11900000.0,,Sector 150
5687,4.0,Under Construction,3963 ,5299,20900000.0,,Sector 150
5688,2.0,Under Construction,1558 ,6226,9700000.0,,Sector 150
5689,2.0,Under Construction,1628 ,6572,10600000.0,,Sector 150
5690,2.0,Under Construction,1264 ,6487,8199000.0,,Sector 150
5691,3.0,Ready to move,2095 ,6175,12900000.0,,Sector 150
5692,3.0,Ready to move,1675 ,6175,10300000.0,,Sector 150
5693,3.0,Under Construction,1850 ,5600,10300000.0,3 ,Sector 150
5694,3.0,Under Construction,1850 ,5600,10300000.0,3 ,Sector 150
5695,3.0,Under Construction,1335 ,5600,7476000.0,,Sector 150
5696,3.0,Under Construction,1335 ,5600,7476000.0,,Sector 150
5697,4.0,Ready to move,2700 ,9629,26000000.0,5 ,Sector 75
5698,3.0,Under Construction,1520 ,3947,6000000.0,3 ,Sector 129
5699,3.0,Under Construction,1520 ,4078,6200000.0,3 ,Sector 129
5700,3.0,Under Construction,1520 ,4078,6200000.0,3 ,Sector 129
5701,,New,576 ,1888,1088000.0,,Noida Extn
5702,,New,900 ,1388,1250000.0,,Sector 27
5703,,New,600 ,366,220000.0,,18 Yamuna Expressway
5704,,New,670 ,380,255000.0,,Sector 150
5705,,New,757 ,1743,1320000.0,,Sector 20
5706,,New,1160 ,1737,2015000.0,,Sector 78
5707,,New,900 ,2222,2000000.0,,Sector 81
5708,,New,900 ,2000,1800000.0,,Noida Extn
5709,,New,1000 ,500,500000.0,,Placio Road
5710,,New,450 ,955,430000.0,,Sector 145
5711,,New,900 ,922,830000.0,,Sector 143
5712,,New,2700 ,962,2600000.0,,Sector 145
5713,,New,4500 ,1000,4500000.0,,Sector 143
5714,,New,810 ,987,800000.0,,Sector144 Noida
5715,,New,900 ,944,850000.0,,Sector 143
5716,,New,802 ,1234,990000.0,,Sector 144
5717,,New,1426 ,1683,2400000.0,,Sector 81
5718,,New,620 ,1693,1050000.0,,kasna
5719,,New,900 ,944,850000.0,,Sector 143
5720,,New,1800 ,944,1700000.0,,Sector144 Noida
5721,,New,1350 ,962,1300000.0,,Sector 144
5722,,New,900 ,1055,950000.0,,noida expressway
5723,,New,1800 ,1000,1800000.0,,Sector 143
5724,,New,1350 ,1111,1500000.0,,noida expressway
5725,,New,900 ,944,850000.0,,noida expressway
5726,,New,720 ,833,600000.0,,noida expressway
5727,,New,1350 ,1111,1500000.0,,noida expressway
5728,,New,900 ,1111,1000000.0,,Sector 143
5729,,Resale,1012 ,6508,6580000.0,,Sector 63 A
5730,,New,900 ,1722,1550000.0,,Sector 122
5731,,New,1200 ,358,430000.0,,Sector 148
5732,,New,550 ,381,210000.0,,Sector 150
5733,,New,350 ,342,120000.0,,Sector 150
5734,,New,710 ,3239,2300000.0,,SEC 149
5735,,New,900 ,4443,3999000.0,,Noida Extn
5736,,New,900 ,3554,3199000.0,,Noida Extn
5737,,New,900 ,3554,3199000.0,,Noida Extn
5738,2.0,Under Construction,1111 ,9900,11000000.0,2 ,Sector 43
5739,3.0,Under Construction,1525 ,10229,15600000.0,3 ,Sector 43
5740,4.0,Under Construction,2259 ,10447,23600000.0,4 ,Sector 43
5741,3.0,Under Construction,1525 ,11475,17500000.0,3 ,Sector 43
5742,3.0,Ready to move,1550 ,5000,7750000.0,2 ,Sector 143B
5743,5.0,Under Construction,6570 ,9056,59500000.0,6 ,Sector 107
5744,4.0,Under Construction,4482 ,8924,40000000.0,6 ,Sector 107
5745,4.0,Under Construction,3501 ,9140,32000000.0,5 ,Sector 107
5746,2.0,Ready to move,950 ,7052,6700000.0,2 ,Sector 52
5747,2.0,Ready to move,950 ,6315,6000000.0,2 ,Sector 52
5748,,New,990 ,1111,1100000.0,,Sector 143B
5749,,New,900 ,1099,989000.0,,Sector 143
5750,,New,990 ,1212,1200000.0,,Sector 148
5751,,New,900 ,1111,1000000.0,,Sector 146
5752,,New,720 ,1111,800000.0,,Sector 143B
5753,,New,900 ,1666,1500000.0,,Sector 140A
5754,,New,1296 ,771,1000000.0,,Sector-144 Noida
5755,,New,900 ,888,800000.0,,Sector-144 Noida
5756,,New,900 ,777,700000.0,,Sector-144 Noida
5757,,New,900 ,1111,1000000.0,,Shahdara Sector 141
5758,,New,765 ,1294,990000.0,,Sector 143A
5759,,New,900 ,1000,900000.0,,Sector 143B
5760,,New,1800 ,1000,1800000.0,,Sector 145
5761,,New,1800 ,1000,1800000.0,,Sector 145
5762,,New,720 ,1041,750000.0,,Sector-143 Noida
5763,,New,630 ,1111,700000.0,,Sector-143 Noida
5764,,New,540 ,1111,600000.0,,Sector 143A
5765,,New,450 ,1111,500000.0,,Sector-143B Noida
5766,,New,1080 ,925,1000000.0,,Sector-143 Noida
5767,,New,810 ,1049,850000.0,,Sector 146
5768,,New,720 ,1111,800000.0,,Sector 145
5769,,New,1800 ,1055,1899000.0,,Sector 142
5770,,New,900 ,1111,1000000.0,,Shahdara Sector 141
5771,,New,5400 ,1087,5869000.0,,Sector 141
5772,,New,4500 ,1088,4899000.0,,Sector 145
5773,,New,3600 ,1083,3899000.0,,Sector-144 Noida
5774,,New,2700 ,1037,2799000.0,,Sector 143
5775,,Resale,1377 ,10893,15000000.0,,Sector 133
5776,,Resale,900 ,1222,1100000.0,,Sector 144
5777,,Resale,900 ,1222,1100000.0,,noida expressway
5778,,Resale,900 ,1333,1200000.0,,Sector144 Noida
5779,,Resale,450 ,1222,550000.0,,Sector 144
5780,,Resale,450 ,1333,600000.0,,Sector 143
5781,,Resale,900 ,1222,1100000.0,,Sector 143
5782,,Resale,450 ,1222,550000.0,,Sector 144
5783,,Resale,450 ,1333,600000.0,,Sector 144
5784,,New,4500 ,1111,5000000.0,,Sector 147
5785,,New,630 ,1269,800000.0,,Sector 143
5786,,New,810 ,1111,900000.0,,Sector 143
5787,,New,100 ,10000,1000000.0,,Sector 143
5788,,New,900 ,1000,900000.0,,Sector 145
5789,,New,900 ,1111,1000000.0,,Sector 142
5790,,New,900 ,888,800000.0,,Sector 146
5791,,New,1800 ,555,1000000.0,,Sector-144 Noida
5792,,New,900 ,1000,900000.0,,Sector 142
5793,,New,1620 ,1111,1799000.0,,Sector-151 Noida
5794,,New,1530 ,1032,1580000.0,,Sector-150 Noida
5795,,New,1530 ,1045,1599000.0,,Sector 149
5796,,New,1440 ,1111,1599000.0,,Sector 148
5797,,New,270 ,925,250000.0,,Sector 140A
5798,,New,540 ,1074,580000.0,,Sector 140A
5799,,New,900 ,1088,980000.0,,Sector 138
5800,,New,450 ,1111,500000.0,,Sector 143
5801,,New,900 ,1055,950000.0,,Sector 144
5802,,New,900 ,888,800000.0,,Sector-144 Noida
5803,,New,720 ,972,699000.0,,Sector 142
5804,,New,900 ,1111,1000000.0,,Sector 142
5805,,New,810 ,1049,850000.0,,Sector 142
5806,,New,720 ,1041,750000.0,,Shahdara Sector 141
5807,,New,630 ,952,600000.0,,Sector 141
5808,,New,540 ,925,500000.0,,Sector 140A
5809,,New,450 ,1000,450000.0,,Sector 140
5810,,New,1350 ,1074,1450000.0,,Sector 147
5811,,New,1260 ,1111,1399000.0,,Sector 147
5812,,New,1170 ,1111,1299000.0,,Sector 145
5813,,New,1080 ,1203,1299000.0,,Sector-144 Noida
5814,,Resale,450 ,1000,450000.0,,Sector144 Noida
5815,,Resale,900 ,944,850000.0,,Sector144 Noida
5816,,Resale,900 ,944,850000.0,,Sector 144
5817,,New,900 ,1388,1250000.0,,Sector 143
5818,,New,1350 ,1333,1800000.0,,Sector 148
5819,3.0,Under Construction,1900 ,5000,9500000.0,3 ,Sector 143B
5820,3.0,Under Construction,1700 ,5000,8500000.0,3 ,Sector 143B
5821,3.0,Under Construction,1600 ,5000,8000000.0,3 ,Sector 143B
5822,3.0,Under Construction,1425 ,4982,7100000.0,3 ,Sector 143B
5823,3.0,Under Construction,1300 ,5000,6500000.0,3 ,Sector 143B
5824,3.0,Under Construction,3047 ,9025,27500000.0,3 ,Sector 128
5825,3.0,Under Construction,3011 ,9033,27200000.0,3 ,Sector 128
5826,4.0,Under Construction,4113 ,9500,39000000.0,5 ,Sector 128
5827,4.0,Under Construction,3938 ,9500,37400000.0,4 ,Sector 128
5828,4.0,Under Construction,3905 ,9346,36500000.0,10 ,Sector 128
5829,3.0,Under Construction,2124 ,7500,15900000.0,3 ,Sector 75
5830,3.0,Under Construction,1656 ,7500,12400000.0,2 ,Sector 75
5831,4.0,Under Construction,2511 ,7499,18800000.0,4 ,Sector 75
5832,4.0,Under Construction,3510 ,8000,28000000.0,4 ,noida sector 107
5833,4.0,Under Construction,3065 ,8000,24500000.0,4 ,noida sector 107
5834,3.0,Under Construction,2435 ,8000,19400000.0,3 ,Sector 107
5835,1.0,Under Construction,560 ,11500,6440000.0,1 ,Sector 94
5836,,Under Construction,535 ,6261,3350000.0,1 ,Sector 74
5837,2.0,Ready to move,1230 ,5800,7134000.0,2 ,Sector 74
5838,3.0,Ready to move,1665 ,5800,9657000.0,3 ,Sector 74
5839,4.0,Under Construction,2250 ,3777,8500000.0,2 ,Sector 129
5840,4.0,Under Construction,3715 ,9690,36000000.0,2 ,Sector 128
5841,5.0,Ready to move,1744 ,22088,38500000.0,1 ,Sector 41
5842,,Ready to move,340 ,36764,12500000.0,1 ,Sector 45
5843,3.0,Under Construction,2440 ,7213,17600000.0,3 ,Sector 150
5844,3.0,Ready to move,1350 ,8518,11500000.0,2 ,Sector 93A
5845,1.0,Ready to move,590 ,7118,4200000.0,2 ,Sector 82
5846,3.0,Ready to move,986 ,7910,7800000.0,2 ,Sector 82
5847,3.0,Under Construction,1355 ,7380,10000000.0,2 ,Sector 79
5848,2.0,Ready to move,1400 ,8571,12000000.0,2 ,Sector 79
5849,3.0,Ready to move,1600 ,8750,14000000.0,2 ,Sector 93B
5850,2.0,Ready to move,1110 ,6486,7200000.0,2 ,Sector 93B
5851,2.0,Ready to move,1110 ,6306,7000000.0,2 ,Sector 93B
5852,2.0,Ready to move,766 ,7310,5600000.0,1 ,Sector 117
5853,2.0,Ready to move,1020 ,4411,4500000.0,1 ,Sector 117
5854,2.0,Ready to move,1295 ,9266,12000000.0,1 ,Sector 107
5855,3.0,Ready to move,1575 ,7936,12500000.0,2 ,Sector 107
5856,3.0,Ready to move,1495 ,5016,7500000.0,2 ,Sector 119
5857,3.0,Ready to move,1140 ,7280,8300000.0,2 ,Sector 119
5858,2.0,Ready to move,1255 ,5976,7500000.0,1 ,Sector 118
5859,3.0,Ready to move,1260 ,4761,6000000.0,2 ,Sector 118
5860,3.0,Ready to move,1475 ,5084,7500000.0,2 ,Sector 118
5861,3.0,Ready to move,1260 ,5555,7000000.0,1 ,Sector 118
5862,2.0,Ready to move,1020 ,4901,5000000.0,1 ,Sector 118
5863,2.0,Ready to move,1425 ,4210,6000000.0,2 ,Sector 119
5864,3.0,Ready to move,1495 ,4347,6500000.0,2 ,Sector 119
5865,4.0,Ready to move,2475 ,5656,14000000.0,2 ,Sector 119
5866,2.0,Ready to move,1085 ,4792,5200000.0,1 ,Sector 119
5867,2.0,Ready to move,1630 ,3987,6500000.0,2 ,Sector 119
5868,3.0,Ready to move,1625 ,4307,7000000.0,2 ,Sector 119
5869,4.0,Under Construction,2300 ,5434,12500000.0,2 ,Sector 120
5870,2.0,Ready to move,1370 ,4744,6500000.0,1 ,Sector 120
5871,2.0,Ready to move,1135 ,5550,6300000.0,2 ,Sector 120
5872,2.0,Ready to move,1350 ,4444,6000000.0,2 ,Sector 128
5873,2.0,Ready to move,675 ,5629,3800000.0,2 ,Sector 121
5874,2.0,Under Construction,950 ,5263,5000000.0,2 ,Sector 120
5875,2.0,Ready to move,950 ,7368,7000000.0,2 ,Sector 52
5876,4.0,Under Construction,3200 ,5500,17600000.0,4 ,Sector 152
5877,3.0,Ready to move,1535 ,5211,8000000.0,2 ,Sector 75
5878,2.0,Ready to move,1230 ,6341,7800000.0,2 ,Sector 74
5879,3.0,Ready to move,1760 ,6818,12000000.0,2 ,Sector 75
5880,2.0,Ready to move,1265 ,4426,5600000.0,2 ,Sector 75
5881,3.0,Ready to move,1350 ,4814,6500000.0,2 ,Sector 75
5882,3.0,Ready to move,2105 ,4513,9500000.0,2 ,Sector 78
5883,3.0,Ready to move,1510 ,6423,9700000.0,2 ,Sector 78
5884,3.0,Ready to move,1870 ,5347,10000000.0,2 ,Sector 77
5885,1.0,Ready to move,550 ,6363,3500000.0,1 ,Sector 77
5886,3.0,Ready to move,1545 ,6472,10000000.0,2 ,Sector 76
5887,2.0,Under Construction,1090 ,5045,5500000.0,2 ,Sector 76
5888,1.0,Ready to move,585 ,6495,3800000.0,1 ,Sector 78
5889,3.0,Ready to move,1900 ,8842,16800000.0,2 ,Sector 78
5890,2.0,Ready to move,875 ,5142,4500000.0,2 ,Sector 78
5891,2.0,Ready to move,990 ,6060,6000000.0,2 ,Sector 78
5892,2.0,Under Construction,804 ,10243,8235000.0,,Sector 152
5893,3.0,Under Construction,1181 ,9619,11300000.0,,Sector 152
5894,3.0,Under Construction,1185 ,9586,11300000.0,,Sector 152
5895,2.0,Under Construction,815 ,10243,8348000.0,,Sector 152
5896,3.0,Under Construction,1900 ,4750,9025000.0,,Sector 143B
5897,3.0,Under Construction,1425 ,4750,6768000.0,,Sector 143B
5898,3.0,Under Construction,1700 ,4750,8075000.0,,Sector 143B
5899,3.0,Under Construction,1600 ,4750,7600000.0,,Sector 143B
5900,3.0,Under Construction,1300 ,4750,6175000.0,3 ,Sector 143B
5901,3.0,Under Construction,1750 ,6171,10800000.0,,Sector 150
5902,4.0,Under Construction,3220 ,7018,22600000.0,,Sector 150
5903,3.0,Under Construction,2190 ,6484,14200000.0,,Sector 150
5904,3.0,Under Construction,2460 ,7073,17400000.0,,Sector 150
5905,,New,900 ,388,350000.0,,Surajpur
5906,,New,450 ,388,175000.0,,Kulesara
5907,,New,200 ,3000,600000.0,,kasna
5908,,New,450 ,388,175000.0,,Phase2
5909,,New,900 ,333,300000.0,,noida expressway
5910,,New,1350 ,333,450000.0,,Sector 135
5911,,New,900 ,333,300000.0,,Sector 150
5912,,New,1350 ,333,450000.0,,noida expressway
5913,,New,200 ,3000,600000.0,,Kulesara
5914,,New,450 ,388,175000.0,,Sector 135
5915,,New,450 ,388,175000.0,,Phase 2 Noida Extension
5916,,New,1350 ,333,450000.0,,noida expressway
5917,,New,900 ,388,350000.0,,Surajpur
5918,,New,1350 ,333,450000.0,,kasna
5919,,New,900 ,388,350000.0,,Kulesara
5920,,New,900 ,1111,1000000.0,,noida sector 50
5921,,New,630 ,1333,840000.0,,Sector 143
5922,,New,1350 ,333,450000.0,,Sector 135
5923,,New,80 ,3000,240000.0,,Sector 52
5924,,New,200 ,3500,700000.0,,Sector 37
5925,,New,450 ,388,175000.0,,Phase 2 Noida Extension
5926,,New,900 ,388,350000.0,,Bhangel
5927,,New,900 ,944,850000.0,,noida expressway
5928,,New,1080 ,1018,1100000.0,,Sector 137
5929,,New,1350 ,1037,1400000.0,,Sector144 Noida
5930,,New,4500 ,888,4000000.0,,Sector 143
5931,,New,1000 ,400,400000.0,,Sector 137
5932,,New,900 ,944,850000.0,,Sector 145
5933,,New,900 ,888,800000.0,,Sector 143
5934,,New,495 ,1010,500000.0,,Sector 150
5935,,New,900 ,944,850000.0,,Sector 168
5936,,New,2700 ,925,2500000.0,,Noida Greater Noida Expressway
5937,,New,450 ,388,175000.0,,Surajpur
5938,,New,450 ,777,350000.0,,Sector 145
5939,,New,1800 ,666,1200000.0,,Sector 145
5940,,New,900 ,777,700000.0,,Sector 145
5941,,New,1350 ,740,1000000.0,,Sector 135
5942,,New,900 ,1666,1500000.0,,Sector 44 Chhalera
5943,,New,1800 ,777,1400000.0,,Sector144 Noida
5944,,New,450 ,1333,600000.0,,Sector 143
5945,,New,450 ,1333,600000.0,,Sector 143
5946,,New,630 ,1333,840000.0,,Sector 143
5947,,New,720 ,13333,9600000.0,,Sector 143
5948,,New,405 ,333,135000.0,,Sector 149
5949,,New,675 ,333,225000.0,,Sector 150
5950,2.0,Under Construction,1137 ,7499,8527000.0,,Sector 150
5951,2.0,Under Construction,1137 ,7499,8527000.0,,Sector 150
5952,3.0,Under Construction,783 ,13409,10500000.0,3 ,Sector 150
5953,3.0,Under Construction,783 ,13409,10500000.0,3 ,Sector 150
5954,4.0,Under Construction,3501 ,9500,33200000.0,4 ,Sector 107
5955,4.0,Under Construction,4482 ,9500,42500000.0,,Sector 107
5956,5.0,Under Construction,6570 ,9500,62400000.0,,Sector 107
5957,3.0,Under Construction,2031 ,13392,27100000.0,3 ,Sector 128
5958,3.0,Under Construction,2007 ,13403,26800000.0,3 ,Sector 128
5959,4.0,Under Construction,2763 ,13319,36800000.0,,Sector 128
5960,3.0,Under Construction,2062 ,7081,14600000.0,,Sector 150
5961,3.0,Under Construction,2062 ,7081,14600000.0,,Sector 150
5962,3.0,Under Construction,2330 ,7039,16400000.0,,Sector 150
5963,3.0,Under Construction,2330 ,7039,16400000.0,,Sector 150
5964,3.0,Under Construction,981 ,13047,12800000.0,,Sector 150
5965,2.0,Under Construction,648 ,14376,9316000.0,,Sector 150
5966,2.0,Under Construction,771 ,10247,7900000.0,,Sector 150
5967,2.0,Under Construction,801 ,10492,8404000.0,,Sector 150
5968,2.0,Under Construction,773 ,10248,7921000.0,,Sector 150
5969,3.0,Under Construction,1455 ,10378,15100000.0,,Sector 150
5970,2.0,Under Construction,977 ,9924,9696000.0,,Sector 150
5971,4.0,Under Construction,1903 ,10459,19900000.0,,Sector 150
5972,3.0,Under Construction,1202 ,9899,11800000.0,,Sector 150
5973,4.0,Ready to move,3200 ,5500,17600000.0,,Sector 150
5974,3.0,Ready to move,2300 ,5500,12600000.0,,Sector 150
5975,3.0,Ready to move,1750 ,5500,9625000.0,,Sector 150
5976,4.0,Under Construction,3198 ,9224,29500000.0,,Sector 150
5977,2.0,Under Construction,1305 ,8812,11500000.0,,Sector 150
5978,3.0,Under Construction,2440 ,11299,27500000.0,,Sector 150
5979,3.0,Under Construction,3165 ,7266,23000000.0,,Sector 150
5980,3.0,Under Construction,1947 ,11299,22000000.0,,Sector 150
5981,4.0,Under Construction,3963 ,8831,35000000.0,,Sector 150
5982,2.0,Under Construction,1558 ,8812,13700000.0,,Sector 150
5983,2.0,Under Construction,1628 ,7678,12500000.0,,Sector 150
5984,3.0,Under Construction,2555 ,7352,18700000.0,,Sector 150
5985,3.0,Under Construction,2555 ,7352,18700000.0,,Sector 150
5986,3.0,Under Construction,2040 ,7352,15000000.0,,Sector 150
5987,3.0,Under Construction,2040 ,7352,15000000.0,,Sector 150
5988,4.0,Under Construction,3355 ,6289,21100000.0,,Sector 150
5989,4.0,Under Construction,3355 ,6289,21100000.0,,Sector 150
5990,3.0,Under Construction,1700 ,7529,12800000.0,3 ,Sector 150
5991,3.0,Under Construction,1700 ,7529,12800000.0,3 ,Sector 150
5992,4.0,Under Construction,2050 ,9663,19700000.0,,Sector 150
5993,4.0,Under Construction,2050 ,9663,19700000.0,,Sector 150
5994,3.0,Under Construction,1430 ,10566,15000000.0,,Sector 150
5995,3.0,Under Construction,1430 ,10566,15000000.0,,Sector 150
5996,4.0,Under Construction,3200 ,6726,21500000.0,,Sector 152
5997,3.0,Under Construction,2350 ,6808,16000000.0,,Sector 152
5998,3.0,Under Construction,1850 ,6891,12700000.0,3 ,Sector 152
5999,4.0,Under Construction,2700 ,7925,21400000.0,4 ,Sector 150
